(1554631020.120123) can0 101#000000041FC00811
(1554631020.120124) can0 103#000003E80000082B
(1554631020.120124) can0 1F1#FF00000001000404
(1554631020.120125) can0 0FB#000C1DC400000F17
(1554631020.121321) can0 0F4#1810770000001FB8
(1554631020.122843) can0 0FA#4020000038080082
(1554631020.122844) can0 7D0#00
(1554631020.122844) can0 0FC#0000800018000F86
(1554631020.122845) can0 412#0000053200
(1554631020.124794) can0 0F0#FFC00084BFF801BF
(1554631020.124795) can0 0EE#00000000000009FF
(1554631020.124795) can0 0FF#001DC3B677000F1F
(1554631020.124796) can0 104#000000060000017E
(1554631020.124797) can0 116#01000000000008BF
(1554631020.125988) can0 1EF#8800000000000BB6
(1554631020.125989) can0 1F2#000000000000047E
(1554631020.125989) can0 1F7#000000B800000000
(1554631020.127123) can0 100#4EE1DC3B80000052
(1554631020.128320) can0 416#0235353400000000
(1554631020.128320) can0 545#6817460780120000
(1554631020.128321) can0 1F0#001FE00000000000
(1554631020.129355) can0 0DE#1BF897D00E06
(1554631020.129356) can0 0FE#7FF80280003209D5
(1554631020.129356) can0 101#000000041FC0090C
(1554631020.130376) can0 103#000003E800000936
(1554631020.130376) can0 1F5#00003F0000
(1554631020.130377) can0 5E0#00438900000005C7
(1554631020.130378) can0 0FB#000C1DC4000000AC
(1554631020.130378) can0 0F4#1810770000001003
(1554631020.131511) can0 15A#80000E97
(1554631020.131511) can0 257#001E30518C400000
(1554631020.132839) can0 0FA#40200000400800C6
(1554631020.132840) can0 0FC#000080001800003D
(1554631020.132840) can0 1F4#000003C000000015
(1554631020.134783) can0 0F0#FFC00084BFF80298
(1554631020.134784) can0 0EE#0000000000000AD8
(1554631020.134785) can0 0FF#001DC3B6770000A4
(1554631020.134785) can0 104#0000000600000259
(1554631020.134786) can0 116#01000000000009A2
(1554631020.136021) can0 1FA#197A240000000000
(1554631020.136022) can0 190#0010000000000339
(1554631020.136022) can0 2FA#00085600
(1554631020.137127) can0 100#4EE1DC3B8000014F
(1554631020.139009) can0 1F8#40FF800000000F45
(1554631020.139010) can0 0DE#1BF897D00F1B
(1554631020.139010) can0 0FE#7FF8018000320A4C
(1554631020.140159) can0 101#000000041FC00A2B
(1554631020.140160) can0 103#000003E800000A11
(1554631020.140160) can0 1F1#FF00000001000519
(1554631020.140161) can0 0FB#000C1DC4000001B1
(1554631020.141359) can0 0F4#181077000000111E
(1554631020.142733) can0 0FA#40200000480800CA
(1554631020.142734) can0 7D0#00
(1554631020.142735) can0 0FC#0000800018000120
(1554631020.144774) can0 0F0#FFC00084BFF80385
(1554631020.144775) can0 0EE#0000000000000BC5
(1554631020.144776) can0 0FF#001DC3B6770001B9
(1554631020.144777) can0 104#0000000600000344
(1554631020.144777) can0 116#0100000000000A85
(1554631020.145933) can0 1EF#8800000000000CE5
(1554631020.145934) can0 1F2#0000000000000563
(1554631020.145934) can0 1F7#000000B800000000
(1554631020.147051) can0 100#4EE1DC3B80000268
(1554631020.148271) can0 419#8B00000C00000000
(1554631020.148272) can0 1F0#001FE00000000000
(1554631020.149302) can0 0DE#1BF997D0003D
(1554631020.149303) can0 0FE#8007FF8000320B28
(1554631020.149303) can0 101#000000041FC00B36
(1554631020.150356) can0 103#000003E800000B0C
(1554631020.150357) can0 1F5#00003F0000
(1554631020.150358) can0 0FB#000C1DC400000296
(1554631020.150359) can0 0F4#1810770000001239
(1554631020.151590) can0 2EF#0F71000000000000
(1554631020.152846) can0 0FA#40200000500800DE
(1554631020.152847) can0 0FC#0000800018000207
(1554631020.152848) can0 1F4#000003C000000108
(1554631020.154679) can0 0F0#FFC00084BFF804D6
(1554631020.154681) can0 0EE#0000000000000C96
(1554631020.154681) can0 0FF#001DC3B67700029E
(1554631020.154682) can0 104#0000000600000417
(1554631020.154683) can0 116#0100000000000B98
(1554631020.155932) can0 1FA#197A240000000000
(1554631020.155933) can0 2FA#00094B00
(1554631020.157089) can0 100#4EE1DC3B80000375
(1554631020.157090) can0 417#C30008C000000000
(1554631020.158141) can0 73E#02008000
(1554631020.158143) can0 1F8#40FF8000000000FE
(1554631020.158144) can0 259#0000009030000000
(1554631020.159333) can0 0DE#1BF997D00120
(1554631020.159334) can0 0FE#7FF7FF8000320C42
(1554631020.159334) can0 101#000000041FC00C65
(1554631020.160423) can0 103#000003E800000C5F
(1554631020.160424) can0 1F1#FF0000000100063E
(1554631020.160424) can0 0FB#000C1DC40000038B
(1554631020.160427) can0 0F4#1810770000001324
(1554631020.162832) can0 0FA#40200000580800D2
(1554631020.162832) can0 2EC#0000000000000000
(1554631020.162833) can0 0FC#000080001800031A
(1554631020.162833) can0 7D0#00
(1554631020.164806) can0 0F0#FFC00084BFF805CB
(1554631020.164807) can0 0EE#0000000000000D8B
(1554631020.164808) can0 0FF#001DC3B677000383
(1554631020.164808) can0 104#000000060000050A
(1554631020.164809) can0 116#0100000000000CCB
(1554631020.166007) can0 1EF#8800000000000DF8
(1554631020.166007) can0 1F2#0000000000000644
(1554631020.166008) can0 1F7#000000B800000000
(1554631020.167106) can0 2ED#7400000000000000
(1554631020.167107) can0 100#4EE1DC3B80000426
(1554631020.169357) can0 1F0#001FE00000000000
(1554631020.169358) can0 0DE#1BFA97D002BD
(1554631020.169358) can0 0FE#7FF8018000320D1F
(1554631020.170372) can0 101#000000041FC00D78
(1554631020.170373) can0 103#000003E800000D42
(1554631020.170373) can0 1F5#00003F0000
(1554631020.170374) can0 0FB#000C1DC4000004D8
(1554631020.171685) can0 0F4#1810770000001477
(1554631020.172916) can0 0FA#40200000600800F6
(1554631020.172917) can0 0FC#0000800018000449
(1554631020.172917) can0 1F4#000003C00000022F
(1554631020.174889) can0 0F0#FFC00084BFF806EC
(1554631020.174890) can0 0EE#0000000000000EAC
(1554631020.174891) can0 0FF#001DC3B6770004D0
(1554631020.174891) can0 104#000000060000062D
(1554631020.174892) can0 116#0100000000000DD6
(1554631020.176182) can0 158#000002CB
(1554631020.176182) can0 1FA#197A240000000000
(1554631020.176183) can0 2FA#000A6C00
(1554631020.176184) can0 736#0832323CC1000000
(1554631020.177368) can0 100#4EE1DC3B8000053B
(1554631020.178371) can0 41A#A44600A88F4660
(1554631020.178372) can0 1F8#40FF8000000001E3
(1554631020.179661) can0 0DE#1BFA97D003A0
(1554631020.179662) can0 0FE#7FE8008000320E46
(1554631020.179663) can0 101#000000041FC00E5F
(1554631020.180636) can0 103#000003E800000E65
(1554631020.180637) can0 1F1#FF00000001000723
(1554631020.180638) can0 0FB#000C1DC4000005C5
(1554631020.180638) can0 0F4#181077000000156A
(1554631020.183336) can0 0FA#40200000680800FA
(1554631020.183337) can0 7D0#00
(1554631020.183338) can0 0FC#0000800018000554
(1554631020.184714) can0 0F0#FFC00084BFF807F1
(1554631020.184715) can0 0EE#0000000000000FB1
(1554631020.184716) can0 0FF#001DC3B6770005CD
(1554631020.184716) can0 104#0000000600000730
(1554631020.184717) can0 116#0100000000000EF1
(1554631020.186300) can0 1EF#8800000000000EDF
(1554631020.186301) can0 190#001000000000046A
(1554631020.186303) can0 1F2#0000000000000759
(1554631020.186303) can0 1F7#000000B800000000
(1554631020.187369) can0 100#4EE1DC3B8000061C
(1554631020.188377) can0 2EE#87E00000
(1554631020.188378) can0 5A6#800002DD79C00000
(1554631020.188379) can0 41E#FFFDFFFEFF0000C0
(1554631020.188379) can0 420#FF6FF6FF6FF60000
(1554631020.188380) can0 1F0#001FE00000000000
(1554631020.189713) can0 0DE#1BF997D00449
(1554631020.189714) can0 0FE#7FF7FE8000320F0F
(1554631020.189714) can0 101#000000041FC00F42
(1554631020.190674) can0 103#000003E800000F78
(1554631020.190675) can0 1F5#00003F0000
(1554631020.190676) can0 0FB#000C1DC4000006E2
(1554631020.190676) can0 0F4#181077000000164D
(1554631020.192787) can0 0FA#40200000700800EE
(1554631020.192788) can0 0FC#0000800018000673
(1554631020.192788) can0 1F4#000003C000000332
(1554631020.192791) can0 41B#20A0000001600000
(1554631020.194757) can0 0F0#FFC00084BFF8084A
(1554631020.194758) can0 0EE#000000000000000A
(1554631020.194758) can0 0FF#001DC3B6770006EA
(1554631020.194759) can0 104#000000060000088B
(1554631020.194759) can0 116#0100000000000FEC
(1554631020.195986) can0 1FA#197A240000000000
(1554631020.195987) can0 2FA#000B7100
(1554631020.197113) can0 100#4EE1DC3B80000701
(1554631020.197114) can0 15C#3200010000000ADE
(1554631020.199013) can0 1F8#40FF8000000002C4
(1554631020.199014) can0 256#0800007FC4420000
(1554631020.199014) can0 0DE#1BF897D005C9
(1554631020.199015) can0 0FE#80180080003200D9
(1554631020.200188) can0 101#000000041FC000F9
(1554631020.200189) can0 103#000003E8000000C3
(1554631020.200189) can0 1F1#FF00000001000898
(1554631020.200190) can0 0FB#000C1DC4000007FF
(1554631020.201405) can0 0F4#1810770000001750
(1554631020.201406) can0 2EF#0F71000000000000
(1554631020.202834) can0 0FA#40200000780800E2
(1554631020.202835) can0 7D0#00
(1554631020.202836) can0 0FC#000080001800076E
(1554631020.204738) can0 0F0#FFC00084BFF80957
(1554631020.204738) can0 0EE#0000000000000117
(1554631020.204739) can0 0FF#001DC3B6770007F7
(1554631020.204740) can0 104#0000000600000996
(1554631020.204740) can0 116#0100000000000057
(1554631020.206231) can0 1EF#8800000000000FC2
(1554631020.206232) can0 1F2#00000000000008E2
(1554631020.206233) can0 1F7#000000B800000000
(1554631020.206233) can0 418#00000E57
(1554631020.207336) can0 100#4EE1DC3B800008BA
(1554631020.209366) can0 1F0#001FE00000000000
(1554631020.209368) can0 0DE#1BF997D00673
(1554631020.209368) can0 0FE#7FF8018000320183
(1554631020.210321) can0 101#000000041FC001E4
(1554631020.210322) can0 103#000003E8000001DE
(1554631020.210323) can0 1F5#00003F0000
(1554631020.210324) can0 0FB#000C1DC400000844
(1554631020.211593) can0 0F4#18107700000018EB
(1554631020.212922) can0 0FA#40200000000800A6
(1554631020.212923) can0 2EC#0000000000000000
(1554631020.212924) can0 0FC#00008000180008D5
(1554631020.212924) can0 1F4#000003C000000461
(1554631020.215134) can0 0F0#FFC00084BFF80A70
(1554631020.215135) can0 0EE#0000000000000230
(1554631020.215135) can0 0FF#001DC3B67700084C
(1554631020.215136) can0 104#0000000600000AB1
(1554631020.215137) can0 116#010000000000014A
(1554631020.216199) can0 1FA#197A240000000000
(1554631020.216200) can0 2FA#000C2200
(1554631020.217365) can0 2ED#7400000000000000
(1554631020.217366) can0 100#4EE1DC3B800009A7
(1554631020.218955) can0 1F8#40FF8000000003D9
(1554631020.218956) can0 0DE#1BF997D0076E
(1554631020.220249) can0 0FE#7FE80080003202DA
(1554631020.220249) can0 101#000000041FC002C3
(1554631020.220250) can0 103#000003E8000002F9
(1554631020.220251) can0 1F1#FF00000001000985
(1554631020.221390) can0 0FB#000C1DC400000959
(1554631020.221391) can0 0F4#18107700000019F6
(1554631020.223282) can0 0FA#40200000080800AA
(1554631020.223283) can0 7D0#00
(1554631020.223284) can0 0FC#00008000180009C8
(1554631020.223284) can0 412#0000053200
(1554631020.225267) can0 0F0#FFC00084BFF80B6D
(1554631020.225268) can0 0EE#000000000000032D
(1554631020.225268) can0 0FF#001DC3B677000951
(1554631020.225269) can0 104#0000000600000BAC
(1554631020.225270) can0 116#010000000000026D
(1554631020.226345) can0 1EF#8800000000000079
(1554631020.226346) can0 1F2#00000000000009FF
(1554631020.226350) can0 1F7#000000B800000000
(1554631020.227368) can0 100#4EE1DC3B80000A80
(1554631020.228519) can0 416#0031433442553030
(1554631020.228520) can0 1F0#001FE00000000000
(1554631020.229480) can0 0DE#1BF997D008D5
(1554631020.229481) can0 0FE#8007FE80003203AA
(1554631020.229482) can0 101#000000041FC003DE
(1554631020.230383) can0 103#000003E8000003E4
(1554631020.230384) can0 1F5#00003F0000
(1554631020.230384) can0 0FB#000C1DC400000A7E
(1554631020.230385) can0 0F4#1810770000001AD1
(1554631020.231585) can0 257#001E30518C400000
(1554631020.233134) can0 0FA#40200000100800BE
(1554631020.233135) can0 0FC#0000800018000AEF
(1554631020.233136) can0 1F4#000003C00000057C
(1554631020.235203) can0 0F0#FFC00084BFF80C3E
(1554631020.235204) can0 0EE#000000000000047E
(1554631020.235205) can0 0FF#001DC3B677000A76
(1554631020.235205) can0 104#0000000600000CFF
(1554631020.235206) can0 116#0100000000000370
(1554631020.236179) can0 1FA#193A240000000000
(1554631020.236180) can0 190#0010000000000577
(1554631020.236180) can0 2FA#000D3F00
(1554631020.237341) can0 100#4EE1DC3B80000B9D
(1554631020.239272) can0 1F8#40FF80000000048A
(1554631020.239273) can0 0DE#1BF997D009C8
(1554631020.239274) can0 0FE#8027FD800032046F
(1554631020.240355) can0 101#000000041FC0048D
(1554631020.240356) can0 103#000003E8000004B7
(1554631020.240357) can0 1F1#FF00000001000AA2
(1554631020.240357) can0 0FB#000C1DC400000B63
(1554631020.241583) can0 0F4#1810770000001BCC
(1554631020.243137) can0 0FA#40200000180800B2
(1554631020.243138) can0 7D0#00
(1554631020.243138) can0 0FC#0000800018000BF2
(1554631020.244780) can0 0F0#FFC00084BFF80D23
(1554631020.244781) can0 0EE#0000000000000563
(1554631020.244782) can0 0FF#001DC3B677000B6B
(1554631020.244782) can0 104#0000000600000DE2
(1554631020.244783) can0 116#0100000000000423
(1554631020.246203) can0 1EF#8800000000000164
(1554631020.246204) can0 1F2#0000000000000AD8
(1554631020.246205) can0 1F7#000000B800000000
(1554631020.247311) can0 100#4EE1DC3B80000CCE
(1554631020.248534) can0 384#081DAA8800C00000
(1554631020.248535) can0 419#8A00000C00000000
(1554631020.248536) can0 1F0#001FE00000000000
(1554631020.249554) can0 0DE#1BF997D00AEF
(1554631020.249555) can0 0FE#8007FF800032058E
(1554631020.249555) can0 101#000000041FC00590
(1554631020.250598) can0 103#000003E8000005AA
(1554631020.250599) can0 1F5#00003F0000
(1554631020.250600) can0 0FB#000C1DC400000C30
(1554631020.250601) can0 0F4#1810770000001C9F
(1554631020.251878) can0 2EF#0F71000000000000
(1554631020.253102) can0 0FA#4020000020080096
(1554631020.253104) can0 0FC#0000800018000CA1
(1554631020.253104) can0 1F4#000003C00000065B
(1554631020.255234) can0 0F0#FFC00084BFF80E04
(1554631020.255235) can0 0EE#0000000000000644
(1554631020.255236) can0 0FF#001DC3B677000C38
(1554631020.255236) can0 104#0000000600000EC5
(1554631020.255237) can0 116#010000000000053E
(1554631020.256289) can0 1FA#193A240000000000
(1554631020.256290) can0 2FA#000E1800
(1554631020.256290) can0 5AD#FB00000000000000
(1554631020.257108) can0 100#4EE1DC3B80000DD3
(1554631020.257109) can0 417#C30008C000000000
(1554631020.258932) can0 1F8#40FF800000000597
(1554631020.258933) can0 259#0000009030000000
(1554631020.258934) can0 0DE#1BF997D00BF2
(1554631020.258934) can0 0FE#7FE7FF8000320684
(1554631020.260479) can0 101#000000041FC006B7
(1554631020.260483) can0 103#000003E80000068D
(1554631020.260484) can0 1F1#FF00000001000BBF
(1554631020.260485) can0 0FB#000C1DC400000D2D
(1554631020.261665) can0 0F4#1810770000001D82
(1554631020.263223) can0 0FA#402000002808009A
(1554631020.263224) can0 2EC#0000000000000000
(1554631020.263225) can0 0FC#0000800018000DBC
(1554631020.263225) can0 7D0#00
(1554631020.265189) can0 0F0#FFC00084BFF80F19
(1554631020.265190) can0 0EE#0000000000000759
(1554631020.265191) can0 0FF#001DC3B677000D25
(1554631020.265191) can0 104#0000000600000FD8
(1554631020.265192) can0 116#0100000000000619
(1554631020.266269) can0 1EF#8800000000000243
(1554631020.266270) can0 1F2#0000000000000BC5
(1554631020.266270) can0 1F7#000000B800000000
(1554631020.267388) can0 2ED#7400000000000000
(1554631020.267389) can0 100#4EE1DC3B80000EF4
(1554631020.269529) can0 1F0#001FE00000000000
(1554631020.269530) can0 0DE#1BF997D00CA1
(1554631020.269531) can0 0FE#7FE7FE80003207F3
(1554631020.270307) can0 101#000000041FC007AA
(1554631020.270307) can0 103#000003E800000790
(1554631020.270308) can0 1F5#00003F0000
(1554631020.270309) can0 0FB#000C1DC400000E0A
(1554631020.271589) can0 0F4#1810770000001EA5
(1554631020.273105) can0 0FA#402000003008008E
(1554631020.273106) can0 0FC#0000800018000E9B
(1554631020.273107) can0 1F4#000003C000000746
(1554631020.275194) can0 0F0#FFC00084BFF800A2
(1554631020.275195) can0 0EE#00000000000008E2
(1554631020.275196) can0 0FF#001DC3B677000E02
(1554631020.275196) can0 104#0000000600000063
(1554631020.275197) can0 116#0100000000000704
(1554631020.276164) can0 1FA#197A240000000000
(1554631020.276165) can0 2FA#000F0500
(1554631020.276165) can0 736#0832323CC1000000
(1554631020.277319) can0 100#4EE1DC3B80000FE9
(1554631020.278351) can0 41A#A44600A88F4660
(1554631020.278352) can0 1F8#40FF8000000006B0
(1554631020.279516) can0 0DE#1BF997D00DBC
(1554631020.279517) can0 0FE#7FE8008000320808
(1554631020.279518) can0 101#000000041FC00811
(1554631020.280633) can0 103#000003E80000082B
(1554631020.280634) can0 1F1#FF00000001000CEC
(1554631020.280635) can0 0FB#000C1DC400000F17
(1554631020.280635) can0 0F4#1810770000001FB8
(1554631020.282861) can0 0FA#4020000038080082
(1554631020.282862) can0 7D0#00
(1554631020.282863) can0 0FC#0000800018000F86
(1554631020.285358) can0 0F0#FFC00084BFF801BF
(1554631020.285359) can0 0EE#00000000000009FF
(1554631020.285360) can0 0FF#001DC3B677000F1F
(1554631020.285361) can0 104#000000060000017E
(1554631020.285361) can0 116#01000000000008BF
(1554631020.286310) can0 1EF#880000000000035E
(1554631020.286311) can0 190#0010000000000650
(1554631020.286312) can0 1F2#0000000000000C96
(1554631020.286312) can0 1F7#000000B800000000
(1554631020.287162) can0 100#4EE1DC3B80000052
(1554631020.287163) can0 1E360039#05
(1554631020.288309) can0 2EE#88C00000
(1554631020.288310) can0 41E#FFFDFFFEFF0000C0
(1554631020.288310) can0 420#FF6FF6FF6FF60000
(1554631020.288311) can0 1E360043#05
(1554631020.288311) can0 1F0#001FE00000000000
(1554631020.289760) can0 0DE#1BF997D00E9B
(1554631020.289761) can0 0FE#7FE7FF800032093F
(1554631020.289762) can0 101#000000041FC0090C
(1554631020.290665) can0 103#000003E800000936
(1554631020.290666) can0 1F5#00003F0000
(1554631020.290667) can0 0FB#000C1DC4000000AC
(1554631020.290667) can0 0F4#1810770000001003
(1554631020.293147) can0 0FA#40200000400800C6
(1554631020.293148) can0 0FC#000080001800003D
(1554631020.293149) can0 1F4#000003C0000008FD
(1554631020.293149) can0 41B#20A0000001600000
(1554631020.295196) can0 0F0#FFC00084BFF80298
(1554631020.295197) can0 0EE#0000000000000AD8
(1554631020.295198) can0 0FF#001DC3B6770000A4
(1554631020.295198) can0 104#0000000600000259
(1554631020.295199) can0 116#01000000000009A2
(1554631020.296267) can0 1FA#197A240000000000
(1554631020.296268) can0 2FA#0000BE00
(1554631020.297393) can0 100#4EE1DC3B8000014F
(1554631020.297394) can0 15C#3200010000000BC3
(1554631020.299305) can0 1F8#40FF8000000007AD
(1554631020.299306) can0 256#0800007FC4420000
(1554631020.299307) can0 0DE#1BF997D00F86
(1554631020.300183) can0 0FE#7FE7FE8000320A72
(1554631020.300184) can0 101#000000041FC00A2B
(1554631020.300184) can0 103#000003E800000A11
(1554631020.300185) can0 1F1#FF00000001000DF1
(1554631020.301403) can0 0FB#000C1DC4000001B1
(1554631020.301404) can0 0F4#181077000000111E
(1554631020.301404) can0 2EF#0F71000000000000
(1554631020.303212) can0 0FA#40200000480800CA
(1554631020.303213) can0 7D0#00
(1554631020.303213) can0 0FC#0000800018000120
(1554631020.305190) can0 0F0#FFC00084BFF80385
(1554631020.305191) can0 0EE#0000000000000BC5
(1554631020.305191) can0 0FF#001DC3B6770001B9
(1554631020.305192) can0 104#0000000600000344
(1554631020.305193) can0 116#0100000000000A85
(1554631020.306271) can0 1EF#880000000000040D
(1554631020.306272) can0 1F2#0000000000000D8B
(1554631020.306272) can0 1F7#000000B800000000
(1554631020.306273) can0 418#00000F4A
(1554631020.306274) can0 1E360016#05
(1554631020.307386) can0 100#4EE1DC3B80000268
(1554631020.309306) can0 5A5#0000000000000000
(1554631020.309307) can0 0DE#1BF997D0003D
(1554631020.309308) can0 1F0#001FE00000000000
(1554631020.309308) can0 0FE#7FE7FE8000320B6F
(1554631020.310371) can0 101#000000041FC00B36
(1554631020.310372) can0 103#000003E800000B0C
(1554631020.310373) can0 1F5#00003F0000
(1554631020.310373) can0 0FB#000C1DC400000296
(1554631020.311681) can0 0F4#1810770000001239
(1554631020.313168) can0 0FA#40200000500800DE
(1554631020.313169) can0 2EC#0000000000000000
(1554631020.313170) can0 0FC#0000800018000207
(1554631020.313170) can0 1F4#000003C0000009E0
(1554631020.315209) can0 0F0#FFC00084BFF804D6
(1554631020.315210) can0 0EE#0000000000000C96
(1554631020.315211) can0 0FF#001DC3B67700029E
(1554631020.315211) can0 104#0000000600000417
(1554631020.315212) can0 116#0100000000000B98
(1554631020.316294) can0 1FA#197A240000000000
(1554631020.316295) can0 2FA#0001A300
(1554631020.317373) can0 2ED#7400000000000000
(1554631020.317374) can0 100#4EE1DC3B80000375
(1554631020.319370) can0 1F8#40FF800000000816
(1554631020.319371) can0 0DE#1BF997D00120
(1554631020.319372) can0 0FE#7FF8018000320C02
(1554631020.320367) can0 101#000000041FC00C65
(1554631020.320367) can0 103#000003E800000C5F
(1554631020.320368) can0 1F1#FF00000001000ED6
(1554631020.320369) can0 0FB#000C1DC40000038B
(1554631020.321679) can0 0F4#1810770000001324
(1554631020.323250) can0 0FA#40200000580800D2
(1554631020.323251) can0 7D0#00
(1554631020.323252) can0 0FC#000080001800031A
(1554631020.323252) can0 412#0000053200
(1554631020.325172) can0 0F0#FFC00084BFF805CB
(1554631020.325173) can0 0EE#0000000000000D8B
(1554631020.325177) can0 0FF#001DC3B677000383
(1554631020.325178) can0 104#000000060000050A
(1554631020.325178) can0 116#0100000000000CCB
(1554631020.326272) can0 1EF#8800000000000510
(1554631020.326272) can0 1F2#0000000000000EAC
(1554631020.326273) can0 1F7#000000B800000000
(1554631020.327384) can0 100#4EE1DC3B80000426
(1554631020.328676) can0 416#0130304850453836
(1554631020.328677) can0 1F0#001FE00000000000
(1554631020.328678) can0 0DE#1BF997D00207
(1554631020.330250) can0 0FE#8008028000320D98
(1554631020.330251) can0 101#000000041FC00D78
(1554631020.330252) can0 103#000003E800000D42
(1554631020.330253) can0 1F5#00003F0000
(1554631020.331386) can0 0FB#000C1DC4000004D8
(1554631020.331387) can0 0F4#1810770000001477
(1554631020.331387) can0 257#001E30518C400000
(1554631020.333193) can0 0FA#40200000600800F6
(1554631020.333194) can0 0FC#0000800018000449
(1554631020.333195) can0 1F4#000003C000000AC7
(1554631020.335173) can0 0F0#FFC00084BFF806EC
(1554631020.335174) can0 0EE#0000000000000EAC
(1554631020.335174) can0 0FF#001DC3B6770004D0
(1554631020.335175) can0 104#000000060000062D
(1554631020.335175) can0 116#0100000000000DD6
(1554631020.336240) can0 1FA#197A240000000000
(1554631020.336241) can0 190#001000000000074D
(1554631020.336241) can0 2FA#00028400
(1554631020.337398) can0 100#4EE1DC3B8000053B
(1554631020.339309) can0 1F8#40FF80000000090B
(1554631020.339310) can0 0DE#1BF997D0031A
(1554631020.340183) can0 0FE#8008018000320E01
(1554631020.340184) can0 101#000000041FC00E5F
(1554631020.340185) can0 103#000003E800000E65
(1554631020.340185) can0 1F1#FF00000001000FCB
(1554631020.341403) can0 0FB#000C1DC4000005C5
(1554631020.341404) can0 0F4#181077000000156A
(1554631020.343190) can0 0FA#40200000680800FA
(1554631020.343192) can0 7D0#00
(1554631020.343192) can0 0FC#0000800018000554
(1554631020.345256) can0 0F0#FFC00084BFF807F1
(1554631020.345257) can0 0EE#0000000000000FB1
(1554631020.345258) can0 0FF#001DC3B6770005CD
(1554631020.345258) can0 104#0000000600000730
(1554631020.345259) can0 116#0100000000000EF1
(1554631020.346310) can0 1EF#8800000000000637
(1554631020.346311) can0 1F2#0000000000000FB1
(1554631020.346312) can0 1F7#000000B800000000
(1554631020.347376) can0 100#4EE1DC3B8000061C
(1554631020.348664) can0 419#8A00000C00000000
(1554631020.348665) can0 1F0#001FE00000000000
(1554631020.348666) can0 0DE#1BF997D00449
(1554631020.350252) can0 0FE#8008018000320F1C
(1554631020.350253) can0 101#000000041FC00F42
(1554631020.350254) can0 103#000003E800000F78
(1554631020.350254) can0 1F5#00003F0000
(1554631020.351383) can0 0FB#000C1DC4000006E2
(1554631020.351384) can0 0F4#181077000000164D
(1554631020.351384) can0 2EF#0F71000000000000
(1554631020.353307) can0 0FA#40200000700800EE
(1554631020.353308) can0 0FC#0000800018000673
(1554631020.353309) can0 1F4#000003C000000BDA
(1554631020.355140) can0 0F0#FFC00084BFF8084A
(1554631020.355141) can0 0EE#000000000000000A
(1554631020.355141) can0 0FF#001DC3B6770006EA
(1554631020.355142) can0 104#000000060000088B
(1554631020.355142) can0 116#0100000000000FEC
(1554631020.356245) can0 1FA#197A240000000000
(1554631020.356246) can0 2FA#00039900
(1554631020.357389) can0 100#4EE1DC3B80000701
(1554631020.357390) can0 417#C30008C000000000
(1554631020.359275) can0 1F8#40FF800000000A2C
(1554631020.359276) can0 259#0000009030000000
(1554631020.359279) can0 0DE#1BF997D00554
(1554631020.360160) can0 0FE#7FF80080003200F4
(1554631020.360161) can0 101#000000041FC000F9
(1554631020.360162) can0 103#000003E8000000C3
(1554631020.360163) can0 1F1#FF00000001000070
(1554631020.361412) can0 0FB#000C1DC4000007FF
(1554631020.361413) can0 0F4#1810770000001750
(1554631020.363300) can0 0FA#40200000780800E2
(1554631020.363301) can0 0FC#000080001800076E
(1554631020.363302) can0 2EC#0000000000000000
(1554631020.363303) can0 7D0#00
(1554631020.365206) can0 0F0#FFC00084BFF80957
(1554631020.365207) can0 0EE#0000000000000117
(1554631020.365208) can0 0FF#001DC3B6770007F7
(1554631020.365208) can0 104#0000000600000996
(1554631020.365209) can0 116#0100000000000057
(1554631020.366243) can0 1EF#880000000000072A
(1554631020.366244) can0 1F2#000000000000000A
(1554631020.366245) can0 1F7#000000B800000000
(1554631020.367386) can0 2ED#7400000000000000
(1554631020.367387) can0 100#4EE1DC3B800008BA
(1554631020.369551) can0 1F0#001FE00000000000
(1554631020.369552) can0 0DE#1BF997D00673
(1554631020.369552) can0 0FE#7FF7FF80003201C3
(1554631020.370170) can0 101#000000041FC001E4
(1554631020.370171) can0 103#000003E8000001DE
(1554631020.370171) can0 1F5#00003F0000
(1554631020.370172) can0 0FB#000C1DC400000844
(1554631020.371720) can0 0F4#18107700000018EB
(1554631020.373248) can0 0FA#40200000000800A6
(1554631020.373249) can0 0FC#00008000180008D5
(1554631020.373250) can0 1F4#000003C000000C89
(1554631020.374802) can0 0F0#FFC00084BFF80A70
(1554631020.374803) can0 0EE#0000000000000230
(1554631020.374804) can0 0FF#001DC3B67700084C
(1554631020.374805) can0 104#0000000600000AB1
(1554631020.374805) can0 116#010000000000014A
(1554631020.376373) can0 1FA#197A240000000000
(1554631020.376374) can0 2FA#0004CA00
(1554631020.376375) can0 736#0832323CC1000000
(1554631020.377360) can0 100#4EE1DC3B800009A7
(1554631020.378440) can0 41A#A44600A88F4660
(1554631020.378441) can0 545#6817460780120000
(1554631020.378442) can0 1F8#40FF800000000B31
(1554631020.379494) can0 0DE#1BF997D0076E
(1554631020.379495) can0 0FE#7FF7FF80003202E4
(1554631020.379495) can0 101#000000041FC002C3
(1554631020.380693) can0 103#000003E8000002F9
(1554631020.380694) can0 1F1#FF0000000100016D
(1554631020.380695) can0 5E0#00438900000006E0
(1554631020.380696) can0 0FB#000C1DC400000959
(1554631020.380696) can0 0F4#18107700000019F6
(1554631020.381915) can0 5A7#2000000000000065
(1554631020.383235) can0 0FA#40200000080800AA
(1554631020.383236) can0 0FC#00008000180009C8
(1554631020.383237) can0 7D0#00
(1554631020.384831) can0 0F0#FFC00084BFF80B6D
(1554631020.384832) can0 0EE#000000000000032D
(1554631020.384832) can0 0FF#001DC3B677000951
(1554631020.384833) can0 104#0000000600000BAC
(1554631020.384833) can0 116#010000000000026D
(1554631020.386026) can0 1EF#8800000000000891
(1554631020.386027) can0 190#00100000000008F6
(1554631020.386027) can0 1F2#0000000000000117
(1554631020.386028) can0 1F7#000000B800000000
(1554631020.387440) can0 100#4EE1DC3B80000A80
(1554631020.388501) can0 2EE#88600000
(1554631020.388502) can0 41E#FFFDFFFEFF0000C0
(1554631020.388503) can0 420#FF6FF6FF6FF60000
(1554631020.388504) can0 1F0#001FE00000000000
(1554631020.389637) can0 0DE#1BF997D008D5
(1554631020.389638) can0 0FE#800802800032033E
(1554631020.389639) can0 101#000000041FC003DE
(1554631020.390686) can0 103#000003E8000003E4
(1554631020.390687) can0 1F5#00003F0000
(1554631020.390688) can0 0FB#000C1DC400000A7E
(1554631020.390688) can0 0F4#1810770000001AD1
(1554631020.393388) can0 0FA#40200000100800BE
(1554631020.393389) can0 0FC#0000800018000AEF
(1554631020.393389) can0 1F4#000003C000000D94
(1554631020.393390) can0 41B#20A0000001600000
(1554631020.395157) can0 0F0#FFC00084BFF80C3E
(1554631020.395158) can0 0EE#000000000000047E
(1554631020.395158) can0 0FF#001DC3B677000A76
(1554631020.395159) can0 104#0000000600000CFF
(1554631020.395160) can0 116#0100000000000370
(1554631020.396242) can0 1FA#197A240000000000
(1554631020.396243) can0 2FA#0005D700
(1554631020.397395) can0 100#4EE1DC3B80000B9D
(1554631020.397396) can0 15C#3200010000000C90
(1554631020.399241) can0 1F8#40FF800000000C62
(1554631020.399242) can0 256#0800007FC4420000
(1554631020.399242) can0 0DE#1BF997D009C8
(1554631020.400197) can0 0FE#80080080003204B9
(1554631020.400198) can0 101#000000041FC0048D
(1554631020.400198) can0 103#000003E8000004B7
(1554631020.400199) can0 1F1#FF0000000100024A
(1554631020.401404) can0 0FB#000C1DC400000B63
(1554631020.401406) can0 0F4#1810770000001BCC
(1554631020.401406) can0 2EF#0F71000000000000
(1554631020.403327) can0 0FA#40200000180800B2
(1554631020.403328) can0 0FC#0000800018000BF2
(1554631020.403329) can0 7D0#00
(1554631020.405262) can0 0F0#FFC00084BFF80D23
(1554631020.405263) can0 0EE#0000000000000563
(1554631020.405264) can0 0FF#001DC3B677000B6B
(1554631020.405264) can0 104#0000000600000DE2
(1554631020.405265) can0 116#0100000000000423
(1554631020.406298) can0 1EF#880000000000098C
(1554631020.406299) can0 1F2#0000000000000230
(1554631020.406300) can0 1F7#000000B800000000
(1554631020.406300) can0 418#000000F1
(1554631020.407373) can0 100#4EE1DC3B80000CCE
(1554631020.408513) can0 73E#02008000
(1554631020.408514) can0 1F0#001FE00000000000
(1554631020.409636) can0 0DE#1BF997D00AEF
(1554631020.409637) can0 0FE#8017FD800032054E
(1554631020.409637) can0 101#000000041FC00590
(1554631020.410453) can0 103#000003E8000005AA
(1554631020.410454) can0 1F5#00003F0000
(1554631020.410454) can0 0FB#000C1DC400000C30
(1554631020.410455) can0 0F4#1810770000001C9F
(1554631020.412984) can0 0FA#4020000020080096
(1554631020.412985) can0 0FC#0000800018000CA1
(1554631020.412985) can0 1F4#000003C000000EB3
(1554631020.412986) can0 2EC#0000000000000000
(1554631020.415229) can0 0F0#FFC00084BFF80E04
(1554631020.415230) can0 0EE#0000000000000644
(1554631020.415230) can0 0FF#001DC3B677000C38
(1554631020.415231) can0 104#0000000600000EC5
(1554631020.415232) can0 116#010000000000053E
(1554631020.416031) can0 1FA#197A240000000000
(1554631020.416032) can0 2FA#0006F000
(1554631020.417433) can0 2ED#7400000000000000
(1554631020.417435) can0 100#4EE1DC3B80000DD3
(1554631020.419472) can0 1F8#40FF800000000D7F
(1554631020.419474) can0 0DE#1BF997D00BF2
(1554631020.419474) can0 0FE#7FF7FF8000320690
(1554631020.420337) can0 101#000000041FC006B7
(1554631020.420338) can0 103#000003E80000068D
(1554631020.420339) can0 1F1#FF00000001000357
(1554631020.420339) can0 0FB#000C1DC400000D2D
(1554631020.421680) can0 0F4#1810770000001D82
(1554631020.423278) can0 0FA#402000002808009A
(1554631020.423279) can0 0FC#0000800018000DBC
(1554631020.423280) can0 412#0000053200
(1554631020.423284) can0 7D0#00
(1554631020.425206) can0 0F0#FFC00084BFF80F19
(1554631020.425207) can0 0EE#0000000000000759
(1554631020.425208) can0 0FF#001DC3B677000D25
(1554631020.425208) can0 104#0000000600000FD8
(1554631020.425209) can0 116#0100000000000619
(1554631020.426261) can0 1EF#8800000000000AAB
(1554631020.426262) can0 1F2#000000000000032D
(1554631020.426262) can0 1F7#000000B800000000
(1554631020.426263) can0 5A8#B000205686800ECE
(1554631020.427382) can0 100#4EE1DC3B80000EF4
(1554631020.428685) can0 416#0235353400000000
(1554631020.428686) can0 73A#031916022016
(1554631020.428687) can0 1F0#001FE00000000000
(1554631020.429704) can0 0DE#1BF997D00CA1
(1554631020.429705) can0 0FE#7FD80180003207E5
(1554631020.429705) can0 101#000000041FC007AA
(1554631020.430502) can0 103#000003E800000790
(1554631020.430502) can0 1F5#00003F0000
(1554631020.430503) can0 0FB#000C1DC400000E0A
(1554631020.430503) can0 0F4#1810770000001EA5
(1554631020.431676) can0 257#001E30518C400000
(1554631020.432984) can0 0FA#402000003008008E
(1554631020.432985) can0 0FC#0000800018000E9B
(1554631020.432985) can0 1F4#000003C000000FAE
(1554631020.434876) can0 0F0#FFC00084BFF800A2
(1554631020.434877) can0 0EE#00000000000008E2
(1554631020.434877) can0 0FF#001DC3B677000E02
(1554631020.434878) can0 104#0000000600000063
(1554631020.434878) can0 116#0100000000000704
(1554631020.436368) can0 1FA#197A240000000000
(1554631020.436369) can0 190#00100000000009EB
(1554631020.436369) can0 2FA#0007ED00
(1554631020.437356) can0 100#4EE1DC3B80000FE9
(1554631020.438305) can0 4B1#05C0000700000000
(1554631020.438306) can0 1F8#40FF800000000E58
(1554631020.438307) can0 0DE#1BF997D00DBC
(1554631020.440003) can0 0FE#7FF8018000320876
(1554631020.440004) can0 101#000000041FC00811
(1554631020.440005) can0 103#000003E80000082B
(1554631020.440005) can0 1F1#FF00000001000404
(1554631020.441166) can0 0FB#000C1DC400000F17
(1554631020.441167) can0 0F4#1810770000001FB8
(1554631020.442927) can0 0FA#4020000038080082
(1554631020.442927) can0 7D0#00
(1554631020.442928) can0 0FC#0000800018000F86
(1554631020.444854) can0 0F0#FFC00084BFF801BF
(1554631020.444855) can0 0EE#00000000000009FF
(1554631020.444855) can0 0FF#001DC3B677000F1F
(1554631020.444856) can0 104#000000060000017E
(1554631020.444856) can0 116#01000000000008BF
(1554631020.446357) can0 1EF#8800000000000BB6
(1554631020.446358) can0 1F2#000000000000047E
(1554631020.446359) can0 1F7#000000B800000000
(1554631020.447363) can0 100#4EE1DC3B80000052
(1554631020.448400) can0 419#8A00000C00000000
(1554631020.448401) can0 1F0#001FE00000000000
(1554631020.448401) can0 0DE#1BF997D00E9B
(1554631020.449950) can0 0FE#8008008000320938
(1554631020.449951) can0 101#000000041FC0090C
(1554631020.449951) can0 103#000003E800000936
(1554631020.449952) can0 1F5#00003F0000
(1554631020.451161) can0 0FB#000C1DC4000000AC
(1554631020.451162) can0 0F4#1810770000001003
(1554631020.451162) can0 2EF#0F71000000000000
(1554631020.452981) can0 0FA#40200000400800C6
(1554631020.452982) can0 0FC#000080001800003D
(1554631020.452982) can0 1F4#000003C000000015
(1554631020.454827) can0 0F0#FFC00084BFF80298
(1554631020.454827) can0 0EE#0000000000000AD8
(1554631020.454828) can0 0FF#001DC3B6770000A4
(1554631020.454829) can0 104#0000000600000259
(1554631020.454829) can0 116#01000000000009A2
(1554631020.456345) can0 1FA#197A240000000000
(1554631020.456346) can0 2FA#00085600
(1554631020.457361) can0 100#4EE1DC3B8000014F
(1554631020.457363) can0 417#C30008C000000000
(1554631020.459412) can0 1F8#40FF800000000F45
(1554631020.459413) can0 259#0000009030000000
(1554631020.459413) can0 0DE#1BF997D00F86
(1554631020.459414) can0 0FE#7FF8008000320A26
(1554631020.460356) can0 101#000000041FC00A2B
(1554631020.460357) can0 103#000003E800000A11
(1554631020.460357) can0 1F1#FF00000001000519
(1554631020.460358) can0 0FB#000C1DC4000001B1
(1554631020.461677) can0 0F4#181077000000111E
(1554631020.462932) can0 0FA#40200000480800CA
(1554631020.462933) can0 2EC#0000000000000000
(1554631020.462934) can0 0FC#0000800018000120
(1554631020.462934) can0 7D0#00
(1554631020.465075) can0 0F0#FFC00084BFF80385
(1554631020.465076) can0 0EE#0000000000000BC5
(1554631020.465077) can0 0FF#001DC3B6770001B9
(1554631020.465077) can0 104#0000000600000344
(1554631020.465078) can0 116#0100000000000A85
(1554631020.466380) can0 1EF#8800000000000CE5
(1554631020.466381) can0 1F2#0000000000000563
(1554631020.466381) can0 1F7#000000B800000000
(1554631020.467356) can0 2ED#7400000000000000
(1554631020.467357) can0 100#4EE1DC3B80000268
(1554631020.469317) can0 1F0#001FE00000000000
(1554631020.469318) can0 0DE#1BF997D0003D
(1554631020.469318) can0 0FE#7FF8008000320B3B
(1554631020.470369) can0 101#000000041FC00B36
(1554631020.470370) can0 103#000003E800000B0C
(1554631020.470370) can0 1F5#00003F0000
(1554631020.470371) can0 0FB#000C1DC400000296
(1554631020.471679) can0 0F4#1810770000001239
(1554631020.473103) can0 0FA#40200000500800DE
(1554631020.473104) can0 0FC#0000800018000207
(1554631020.473105) can0 1F4#000003C000000108
(1554631020.475203) can0 0F0#FFC00084BFF804D6
(1554631020.475204) can0 0EE#0000000000000C96
(1554631020.475204) can0 0FF#001DC3B67700029E
(1554631020.475205) can0 104#0000000600000417
(1554631020.475206) can0 116#0100000000000B98
(1554631020.476262) can0 1FA#193A240000000000
(1554631020.476263) can0 2FA#00094B00
(1554631020.476264) can0 736#0832323DC1000000
(1554631020.477384) can0 100#4EE1DC3B80000375
(1554631020.478505) can0 41A#A44600A88F4660
(1554631020.478506) can0 1F8#40FF8000000000FE
(1554631020.479480) can0 0DE#1BF997D00120
(1554631020.479481) can0 0FE#8007FE8000320C11
(1554631020.479482) can0 101#000000041FC00C65
(1554631020.480720) can0 103#000003E800000C5F
(1554631020.480721) can0 1F1#FF0000000100063E
(1554631020.480722) can0 0FB#000C1DC40000038B
(1554631020.480722) can0 0F4#1810770000001324
(1554631020.482900) can0 0FA#40200000580800D2
(1554631020.482901) can0 7D0#00
(1554631020.482901) can0 0FC#000080001800031A
(1554631020.485184) can0 0F0#FFC00084BFF805CB
(1554631020.485185) can0 0EE#0000000000000D8B
(1554631020.485185) can0 0FF#001DC3B677000383
(1554631020.485186) can0 104#000000060000050A
(1554631020.485187) can0 116#0100000000000CCB
(1554631020.486267) can0 1EF#8800000000000DF8
(1554631020.486268) can0 190#0010000000000ACC
(1554631020.486268) can0 1F2#0000000000000644
(1554631020.486269) can0 1F7#000000B800000000
(1554631020.487159) can0 100#4EE1DC3B80000426
(1554631020.488305) can0 2EE#89000000
(1554631020.488306) can0 41E#FFFDFFFEFF0000C0
(1554631020.488307) can0 420#FF6FF6FF6FF60000
(1554631020.488307) can0 1F0#001FE00000000000
(1554631020.489686) can0 0DE#1BF997D00207
(1554631020.489687) can0 0FE#7FF7FE8000320D35
(1554631020.489688) can0 101#000000041FC00D78
(1554631020.490672) can0 103#000003E800000D42
(1554631020.490673) can0 1F5#00003F0000
(1554631020.490673) can0 0FB#000C1DC4000004D8
(1554631020.490674) can0 0F4#1810770000001477
(1554631020.493361) can0 0FA#40200000600800F6
(1554631020.493362) can0 0FC#0000800018000449
(1554631020.493362) can0 1F4#000003C00000022F
(1554631020.493363) can0 41B#20A0000001600000
(1554631020.495155) can0 0F0#FFC00084BFF806EC
(1554631020.495156) can0 0EE#0000000000000EAC
(1554631020.495157) can0 0FF#001DC3B6770004D0
(1554631020.495157) can0 104#000000060000062D
(1554631020.495158) can0 116#0100000000000DD6
(1554631020.496276) can0 1FA#197A240000000000
(1554631020.496276) can0 2FA#000A6C00
(1554631020.497390) can0 100#4EE1DC3B8000053B
(1554631020.497391) can0 15C#3200010000000D8D
(1554631020.498504) can0 384#081DAA8800C00000
(1554631020.498505) can0 256#0800007FC4420000
(1554631020.498506) can0 1F8#40FF8000000001E3
(1554631020.499733) can0 0DE#1BF997D0031A
(1554631020.499734) can0 0FE#7FF8008000320E52
(1554631020.499735) can0 101#000000041FC00E5F
(1554631020.499735) can0 103#000003E800000E65
(1554631020.500996) can0 1F1#FF00000001000723
(1554631020.500997) can0 0FB#000C1DC4000005C5
(1554631020.500997) can0 0F4#181077000000156A
(1554631020.500998) can0 2EF#0F71000000000000
(1554631020.503000) can0 0FA#40200000680800FA
(1554631020.503001) can0 0FC#0000800018000554
(1554631020.503002) can0 7D0#00
(1554631020.505229) can0 0F0#FFC00084BFF807F1
(1554631020.505230) can0 0EE#0000000000000FB1
(1554631020.505230) can0 0FF#001DC3B6770005CD
(1554631020.505231) can0 104#0000000600000730
(1554631020.505232) can0 116#0100000000000EF1
(1554631020.506222) can0 1EF#8800000000000EDF
(1554631020.506223) can0 1F2#0000000000000759
(1554631020.506223) can0 1F7#000000B800000000
(1554631020.506224) can0 418#000001EC
(1554631020.506225) can0 4AF#0020000000000000
(1554631020.507353) can0 100#4EE1DC3B8000061C
(1554631020.509170) can0 1F0#001FE00000000000
(1554631020.509171) can0 0DE#1BF997D00449
(1554631020.509171) can0 0FE#7FE8008000320F5B
(1554631020.510418) can0 101#000000041FC00F42
(1554631020.510419) can0 103#000003E800000F78
(1554631020.510420) can0 1F5#00003F0000
(1554631020.510420) can0 0FB#000C1DC4000006E2
(1554631020.511673) can0 0F4#181077000000164D
(1554631020.513233) can0 0FA#40200000700800EE
(1554631020.513234) can0 2EC#0000000000000000
(1554631020.513234) can0 0FC#0000800018000673
(1554631020.513235) can0 1F4#000003C000000332
(1554631020.515180) can0 0F0#FFC00084BFF8084A
(1554631020.515181) can0 0EE#000000000000000A
(1554631020.515182) can0 0FF#001DC3B6770006EA
(1554631020.515182) can0 104#000000060000088B
(1554631020.515183) can0 116#0100000000000FEC
(1554631020.516262) can0 1FA#193A240000000000
(1554631020.516263) can0 2FA#000B7100
(1554631020.517163) can0 2ED#7400000000000000
(1554631020.517164) can0 100#4EE1DC3B80000701
(1554631020.518977) can0 1F8#40FF8000000002C4
(1554631020.518978) can0 0DE#1BF997D00554
(1554631020.520227) can0 0FE#7FE80080003200E0
(1554631020.520228) can0 101#000000041FC000F9
(1554631020.520228) can0 103#000003E8000000C3
(1554631020.520229) can0 1F1#FF00000001000898
(1554631020.521393) can0 0FB#000C1DC4000007FF
(1554631020.521396) can0 0F4#1810770000001750
(1554631020.523000) can0 0FA#40200000780800E2
(1554631020.523001) can0 0FC#000080001800076E
(1554631020.523002) can0 412#0000053200
(1554631020.523002) can0 7D0#00
(1554631020.525315) can0 0F0#FFC00084BFF80957
(1554631020.525316) can0 0EE#0000000000000117
(1554631020.525316) can0 0FF#001DC3B6770007F7
(1554631020.525317) can0 104#0000000600000996
(1554631020.525318) can0 116#0100000000000057
(1554631020.526295) can0 1EF#8800000000000FC2
(1554631020.526296) can0 1F2#00000000000008E2
(1554631020.526296) can0 1F7#000000B800000000
(1554631020.527360) can0 100#4EE1DC3B800008BA
(1554631020.528454) can0 416#0031433442553030
(1554631020.528455) can0 1F0#001FE00000000000
(1554631020.528455) can0 0DE#1BF997D00673
(1554631020.530297) can0 0FE#7FF80080003201E9
(1554631020.530298) can0 101#000000041FC001E4
(1554631020.530299) can0 103#000003E8000001DE
(1554631020.530299) can0 1F5#00003F0000
(1554631020.531371) can0 0FB#000C1DC400000844
(1554631020.531372) can0 0F4#18107700000018EB
(1554631020.531373) can0 257#001E30518C400000
(1554631020.533003) can0 0FA#40200000000800A6
(1554631020.533004) can0 0FC#00008000180008D5
(1554631020.533004) can0 1F4#000003C000000461
(1554631020.535185) can0 0F0#FFC00084BFF80A70
(1554631020.535186) can0 0EE#0000000000000230
(1554631020.535187) can0 0FF#001DC3B67700084C
(1554631020.535187) can0 104#0000000600000AB1
(1554631020.535188) can0 116#010000000000014A
(1554631020.536231) can0 1FA#197A240000000000
(1554631020.536232) can0 190#0010000000000BD1
(1554631020.536233) can0 2FA#000C2200
(1554631020.537392) can0 100#4EE1DC3B800009A7
(1554631020.539002) can0 1F8#40FF8000000003D9
(1554631020.539003) can0 0DE#1BF997D0076E
(1554631020.539003) can0 0FE#7FF7FE800032028E
(1554631020.540136) can0 101#000000041FC002C3
(1554631020.540137) can0 103#000003E8000002F9
(1554631020.540137) can0 1F1#FF00000001000985
(1554631020.540138) can0 0FB#000C1DC400000959
(1554631020.541436) can0 0F4#18107700000019F6
(1554631020.543362) can0 0FA#40200000080800AA
(1554631020.543363) can0 0FC#00008000180009C8
(1554631020.543364) can0 7D0#00
(1554631020.545159) can0 0F0#FFC00084BFF80B6D
(1554631020.545160) can0 0EE#000000000000032D
(1554631020.545160) can0 0FF#001DC3B677000951
(1554631020.545161) can0 104#0000000600000BAC
(1554631020.545162) can0 116#010000000000026D
(1554631020.546239) can0 1EF#8800000000000079
(1554631020.546240) can0 1F2#00000000000009FF
(1554631020.546241) can0 1F7#000000B800000000
(1554631020.547160) can0 100#4EE1DC3B80000A80
(1554631020.548479) can0 419#8A00000C00000000
(1554631020.548480) can0 1F0#001FE00000000000
(1554631020.548480) can0 0DE#1BF997D008D5
(1554631020.550291) can0 0FE#8017FC800032036A
(1554631020.550292) can0 101#000000041FC003DE
(1554631020.550292) can0 103#000003E8000003E4
(1554631020.550293) can0 1F5#00003F0000
(1554631020.551378) can0 0FB#000C1DC400000A7E
(1554631020.551379) can0 0F4#1810770000001AD1
(1554631020.551379) can0 2EF#0F71000000000000
(1554631020.553004) can0 0FA#40200000100800BE
(1554631020.553005) can0 0FC#0000800018000AEF
(1554631020.553005) can0 1F4#000003C00000057C
(1554631020.555250) can0 0F0#FFC00084BFF80C3E
(1554631020.555251) can0 0EE#000000000000047E
(1554631020.555251) can0 0FF#001DC3B677000A76
(1554631020.555252) can0 104#0000000600000CFF
(1554631020.555256) can0 116#0100000000000370
(1554631020.556276) can0 1FA#197A240000000000
(1554631020.556277) can0 2FA#000D3F00
(1554631020.557384) can0 100#4EE1DC3B80000B9D
(1554631020.557385) can0 417#C30008C000000000
(1554631020.558924) can0 1F8#40FF80000000048A
(1554631020.558925) can0 259#0000009030000000
(1554631020.558925) can0 0DE#1BF997D009C8
(1554631020.560235) can0 0FE#8017FE80003204ED
(1554631020.560236) can0 101#000000041FC0048D
(1554631020.560236) can0 103#000003E8000004B7
(1554631020.560237) can0 1F1#FF00000001000AA2
(1554631020.561389) can0 0FB#000C1DC400000B63
(1554631020.561390) can0 0F4#1810770000001BCC
(1554631020.562951) can0 0FA#40200000180800B2
(1554631020.562952) can0 0FC#0000800018000BF2
(1554631020.562952) can0 2EC#0000000000000000
(1554631020.562953) can0 7D0#00
(1554631020.565270) can0 0F0#FFC00084BFF80D23
(1554631020.565271) can0 0EE#0000000000000563
(1554631020.565272) can0 0FF#001DC3B677000B6B
(1554631020.565272) can0 104#0000000600000DE2
(1554631020.565273) can0 116#0100000000000423
(1554631020.566247) can0 1EF#8800000000000164
(1554631020.566248) can0 1F2#0000000000000AD8
(1554631020.566249) can0 1F7#000000B800000000
(1554631020.567386) can0 2ED#7400000000000000
(1554631020.567386) can0 100#4EE1DC3B80000CCE
(1554631020.569162) can0 1F0#001FE00000000000
(1554631020.569163) can0 0DE#1BF997D00AEF
(1554631020.569163) can0 0FE#7FF7FF80003205B7
(1554631020.569164) can0 101#000000041FC00590
(1554631020.570741) can0 103#000003E8000005AA
(1554631020.570741) can0 1F5#00003F0000
(1554631020.570742) can0 0FB#000C1DC400000C30
(1554631020.570743) can0 0F4#1810770000001C9F
(1554631020.573463) can0 0FA#4020000020080096
(1554631020.573464) can0 0FC#0000800018000CA1
(1554631020.573465) can0 1F4#000003C00000065B
(1554631020.575134) can0 0F0#FFC00084BFF80E04
(1554631020.575134) can0 0EE#0000000000000644
(1554631020.575135) can0 0FF#001DC3B677000C38
(1554631020.575136) can0 104#0000000600000EC5
(1554631020.575136) can0 116#010000000000053E
(1554631020.576246) can0 1FA#197A240000000000
(1554631020.576247) can0 2FA#000E1800
(1554631020.576248) can0 736#0832323CC1000000
(1554631020.577391) can0 100#4EE1DC3B80000DD3
(1554631020.578304) can0 41A#A44600A88F4660
(1554631020.578304) can0 1F8#40FF800000000597
(1554631020.578305) can0 0DE#1BF997D00BF2
(1554631020.579975) can0 0FE#7FE7FF8000320684
(1554631020.579975) can0 101#000000041FC006B7
(1554631020.579976) can0 103#000003E80000068D
(1554631020.579976) can0 1F1#FF00000001000BBF
(1554631020.581386) can0 0FB#000C1DC400000D2D
(1554631020.581387) can0 0F4#1810770000001D82
(1554631020.582896) can0 0FA#402000002808009A
(1554631020.582897) can0 7D0#00
(1554631020.582898) can0 0FC#0000800018000DBC
(1554631020.584848) can0 0F0#FFC00084BFF80F19
(1554631020.584849) can0 0EE#0000000000000759
(1554631020.584850) can0 0FF#001DC3B677000D25
(1554631020.584850) can0 104#0000000600000FD8
(1554631020.584851) can0 116#0100000000000619
(1554631020.586068) can0 1EF#8800000000000243
(1554631020.586068) can0 190#0010000000000C82
(1554631020.586069) can0 1F2#0000000000000BC5
(1554631020.586069) can0 1F7#000000B800000000
(1554631020.587169) can0 100#4EE1DC3B80000EF4
(1554631020.588337) can0 2EE#89400000
(1554631020.588338) can0 41E#FFFDFFFEFF0000C0
(1554631020.588338) can0 420#FF6FF6FF6FF60000
(1554631020.588341) can0 1F0#001FE00000000000
(1554631020.589367) can0 0DE#1BF997D00CA1
(1554631020.589368) can0 0FE#7FE80080003207B3
(1554631020.589369) can0 101#000000041FC007AA
(1554631020.590447) can0 103#000003E800000790
(1554631020.590448) can0 1F5#00003F0000
(1554631020.590449) can0 0FB#000C1DC400000E0A
(1554631020.590449) can0 0F4#1810770000001EA5
(1554631020.592998) can0 0FA#402000003008008E
(1554631020.592999) can0 0FC#0000800018000E9B
(1554631020.592999) can0 1F4#000003C000000746
(1554631020.593000) can0 41B#2120000001600000
(1554631020.594793) can0 0F0#FFC00084BFF800A2
(1554631020.594794) can0 0EE#00000000000008E2
(1554631020.594794) can0 0FF#001DC3B677000E02
(1554631020.594795) can0 104#0000000600000063
(1554631020.594796) can0 116#0100000000000704
(1554631020.596017) can0 1FA#197A240000000000
(1554631020.596018) can0 2FA#000F0500
(1554631020.597173) can0 100#4EE1DC3B80000FE9
(1554631020.597174) can0 15C#3200010000000EAA
(1554631020.599043) can0 1F8#40FF8000000006B0
(1554631020.599044) can0 256#0800007FC4420000
(1554631020.599044) can0 0DE#1BF997D00DBC
(1554631020.599045) can0 0FE#7FD7FE8000320874
(1554631020.600217) can0 101#000000041FC00811
(1554631020.600218) can0 103#000003E80000082B
(1554631020.600219) can0 1F1#FF00000001000CEC
(1554631020.600219) can0 0FB#000C1DC400000F17
(1554631020.601424) can0 0F4#1810770000001FB8
(1554631020.601425) can0 2EF#0F71000000000000
(1554631020.602919) can0 0FA#4020000038080082
(1554631020.602920) can0 0FC#0000800018000F86
(1554631020.602920) can0 7D0#00
(1554631020.604823) can0 0F0#FFC00084BFF801BF
(1554631020.604824) can0 0EE#00000000000009FF
(1554631020.604825) can0 0FF#001DC3B677000F1F
(1554631020.604825) can0 104#000000060000017E
(1554631020.604826) can0 116#01000000000008BF
(1554631020.606021) can0 1EF#880000000000035E
(1554631020.606022) can0 1F2#0000000000000C96
(1554631020.606023) can0 1F7#000000B800000000
(1554631020.606023) can0 418#000002CB
(1554631020.607167) can0 100#4EE1DC3B80000052
(1554631020.609174) can0 1F0#001FE00000000000
(1554631020.609175) can0 0DE#1BF997D00E9B
(1554631020.609176) can0 0FE#8007FE8000320978
(1554631020.609176) can0 101#000000041FC0090C
(1554631020.610417) can0 103#000003E800000936
(1554631020.610417) can0 1F5#00003F0000
(1554631020.610418) can0 0FB#000C1DC4000000AC
(1554631020.610419) can0 0F4#1810770000001003
(1554631020.613000) can0 0FA#40200000400800C6
(1554631020.613000) can0 0FC#000080001800003D
(1554631020.613001) can0 1F4#000003C0000008FD
(1554631020.613001) can0 2EC#0000000000000000
(1554631020.614771) can0 0F0#FFC00084BFF80298
(1554631020.614772) can0 0EE#0000000000000AD8
(1554631020.614773) can0 0FF#001DC3B6770000A4
(1554631020.614774) can0 104#0000000600000259
(1554631020.614774) can0 116#01000000000009A2
(1554631020.616044) can0 1FA#193A240000000000
(1554631020.616045) can0 2FA#0000BE00
(1554631020.617173) can0 2ED#7400000000000000
(1554631020.617174) can0 100#4EE1DC3B8000014F
(1554631020.617174) can0 73C#009FC00000000104
(1554631020.618971) can0 1F8#40FF8000000007AD
(1554631020.618972) can0 0DE#1BF997D00F86
(1554631020.618972) can0 0FE#7FF7FE8000320A66
(1554631020.620195) can0 101#000000041FC00A2B
(1554631020.620196) can0 103#000003E800000A11
(1554631020.620196) can0 1F1#FF00000001000DF1
(1554631020.620197) can0 0FB#000C1DC4000001B1
(1554631020.621426) can0 0F4#181077000000111E
(1554631020.622909) can0 0FA#40200000480800CA
(1554631020.622910) can0 0FC#0000800018000120
(1554631020.622910) can0 412#0000053200
(1554631020.622911) can0 7D0#00
(1554631020.624822) can0 0F0#FFC00084BFF80385
(1554631020.624822) can0 0EE#0000000000000BC5
(1554631020.624823) can0 0FF#001DC3B6770001B9
(1554631020.624823) can0 104#0000000600000344
(1554631020.624824) can0 116#0100000000000A85
(1554631020.626019) can0 1EF#880000000000040D
(1554631020.626020) can0 1F2#0000000000000D8B
(1554631020.626020) can0 1F7#000000B800000000
(1554631020.627169) can0 100#4EE1DC3B80000268
(1554631020.628447) can0 416#0130304850453836
(1554631020.628448) can0 545#6817460780120000
(1554631020.628448) can0 1F0#001FE00000000000
(1554631020.628449) can0 0DE#1BF997D0003D
(1554631020.629945) can0 0FE#7FF7FF8000320B11
(1554631020.629946) can0 101#000000041FC00B36
(1554631020.629947) can0 103#000003E800000B0C
(1554631020.629947) can0 1F5#00003F0000
(1554631020.629948) can0 5E0#00438900000007FD
(1554631020.631170) can0 0FB#000C1DC400000296
(1554631020.631171) can0 0F4#1810770000001239
(1554631020.631171) can0 15A#80000F8A
(1554631020.631172) can0 257#001E30518C400000
(1554631020.632998) can0 0FA#40200000500800DE
(1554631020.632998) can0 0FC#0000800018000207
(1554631020.632999) can0 1F4#000003C0000009E0
(1554631020.634826) can0 0F0#FFC00084BFF804D6
(1554631020.634827) can0 0EE#0000000000000C96
(1554631020.634827) can0 0FF#001DC3B67700029E
(1554631020.634828) can0 104#0000000600000417
(1554631020.634828) can0 116#0100000000000B98
(1554631020.636021) can0 1FA#197A240000000000
(1554631020.636022) can0 190#0010000000000D9F
(1554631020.636023) can0 2FA#0001A300
(1554631020.637173) can0 100#4EE1DC3B80000375
(1554631020.639070) can0 1F8#40FF800000000816
(1554631020.639071) can0 0DE#1BF997D00120
(1554631020.639071) can0 0FE#8007FF8000320C7B
(1554631020.640199) can0 101#000000041FC00C65
(1554631020.640200) can0 103#000003E800000C5F
(1554631020.640200) can0 1F1#FF00000001000ED6
(1554631020.640201) can0 0FB#000C1DC40000038B
(1554631020.641398) can0 0F4#1810770000001324
(1554631020.642944) can0 0FA#40200000580800D2
(1554631020.642945) can0 0FC#000080001800031A
(1554631020.642946) can0 7D0#00
(1554631020.644897) can0 0F0#FFC00084BFF805CB
(1554631020.644898) can0 0EE#0000000000000D8B
(1554631020.644898) can0 0FF#001DC3B677000383
(1554631020.644899) can0 104#000000060000050A
(1554631020.644899) can0 116#0100000000000CCB
(1554631020.646096) can0 1EF#8800000000000510
(1554631020.646097) can0 1F2#0000000000000EAC
(1554631020.646097) can0 1F7#000000B800000000
(1554631020.647170) can0 100#4EE1DC3B80000426
(1554631020.648475) can0 419#8B00000C00000000
(1554631020.648475) can0 1F0#001FE00000000000
(1554631020.648476) can0 0DE#1BF997D00207
(1554631020.649920) can0 0FE#7FF8008000320D75
(1554631020.649921) can0 101#000000041FC00D78
(1554631020.649921) can0 103#000003E800000D42
(1554631020.649922) can0 1F5#00003F0000
(1554631020.651170) can0 0FB#000C1DC4000004D8
(1554631020.651170) can0 0F4#1810770000001477
(1554631020.651171) can0 2EF#0F71000000000000
(1554631020.653022) can0 0FA#40200000600800F6
(1554631020.653023) can0 0FC#0000800018000449
(1554631020.653023) can0 1F4#000003C000000AC7
(1554631020.654796) can0 0F0#FFC00084BFF806EC
(1554631020.654798) can0 0EE#0000000000000EAC
(1554631020.654798) can0 0FF#001DC3B6770004D0
(1554631020.654799) can0 104#000000060000062D
(1554631020.654799) can0 116#0100000000000DD6
(1554631020.656020) can0 1FA#197A240000000000
(1554631020.656020) can0 2FA#00028400
(1554631020.657146) can0 100#4EE1DC3B8000053B
(1554631020.657147) can0 417#C30008C000000000
(1554631020.658341) can0 73E#02008000
(1554631020.658342) can0 1F8#40FF80000000090B
(1554631020.658342) can0 259#0000009030000000
(1554631020.659396) can0 0DE#1BF997D0031A
(1554631020.659396) can0 0FE#7FF8028000320E86
(1554631020.659397) can0 101#000000041FC00E5F
(1554631020.660447) can0 103#000003E800000E65
(1554631020.660447) can0 1F1#FF00000001000FCB
(1554631020.660448) can0 0FB#000C1DC4000005C5
(1554631020.660448) can0 0F4#181077000000156A
(1554631020.663021) can0 0FA#40200000680800FA
(1554631020.663022) can0 0FC#0000800018000554
(1554631020.663022) can0 2EC#0000000000000000
(1554631020.663023) can0 7D0#00
(1554631020.664804) can0 0F0#FFC00084BFF807F1
(1554631020.664805) can0 0EE#0000000000000FB1
(1554631020.664805) can0 0FF#001DC3B6770005CD
(1554631020.664805) can0 104#0000000600000730
(1554631020.664806) can0 116#0100000000000EF1
(1554631020.666019) can0 1EF#8800000000000637
(1554631020.666020) can0 1F2#0000000000000FB1
(1554631020.666021) can0 1F7#000000B800000000
(1554631020.667178) can0 2ED#7400000000000000
(1554631020.667179) can0 100#4EE1DC3B8000061C
(1554631020.669198) can0 1F0#001FE00000000000
(1554631020.669199) can0 0DE#1BF997D00449
(1554631020.669199) can0 0FE#7FF8008000320F4F
(1554631020.669200) can0 101#000000041FC00F42
(1554631020.670421) can0 103#000003E800000F78
(1554631020.670422) can0 1F5#00003F0000
(1554631020.670422) can0 0FB#000C1DC4000006E2
(1554631020.670423) can0 0F4#181077000000164D
(1554631020.673024) can0 0FA#40200000700800EE
(1554631020.673025) can0 0FC#0000800018000673
(1554631020.673025) can0 1F4#000003C000000BDA
(1554631020.674819) can0 0F0#FFC00084BFF8084A
(1554631020.674820) can0 0EE#000000000000000A
(1554631020.674820) can0 0FF#001DC3B6770006EA
(1554631020.674820) can0 104#000000060000088B
(1554631020.674821) can0 116#0100000000000FEC
(1554631020.675950) can0 158#000003D6
(1554631020.675951) can0 1FA#197A240000000000
(1554631020.675951) can0 2FA#00039900
(1554631020.675952) can0 736#0832323CC1000000
(1554631020.677171) can0 100#4EE1DC3B80000701
(1554631020.678341) can0 41A#A44600A88F4660
(1554631020.678341) can0 1F8#40FF800000000A2C
(1554631020.678342) can0 0DE#1BF997D00554
(1554631020.679945) can0 0FE#7FE7FE80003200A0
(1554631020.679945) can0 101#000000041FC000F9
(1554631020.679946) can0 103#000003E8000000C3
(1554631020.679946) can0 1F1#FF00000001000070
(1554631020.681174) can0 0FB#000C1DC4000007FF
(1554631020.681174) can0 0F4#1810770000001750
(1554631020.683018) can0 0FA#40200000780800E2
(1554631020.683019) can0 0FC#000080001800076E
(1554631020.683020) can0 7D0#00
(1554631020.684805) can0 0F0#FFC00084BFF80957
(1554631020.684806) can0 0EE#0000000000000117
(1554631020.684806) can0 0FF#001DC3B6770007F7
(1554631020.684806) can0 104#0000000600000996
(1554631020.684807) can0 116#0100000000000057
(1554631020.685994) can0 1EF#880000000000072A
(1554631020.685995) can0 190#0010000000000EB8
(1554631020.685995) can0 1F2#000000000000000A
(1554631020.685997) can0 1F7#000000B800000000
(1554631020.687173) can0 100#4EE1DC3B800008BA
(1554631020.688370) can0 2EE#88600000
(1554631020.688370) can0 5AB#0000000000000000
(1554631020.688371) can0 41E#FFFDFFFEFF0000C0
(1554631020.688371) can0 5B0#0000000000000000
(1554631020.688372) can0 0DE#1BF997D00673
(1554631020.689569) can0 1F0#001FE00000000000
(1554631020.689570) can0 420#FF6FF6FF6FF60000
(1554631020.689570) can0 0FE#8007FF80003201FA
(1554631020.689571) can0 101#000000041FC001E4
(1554631020.689571) can0 103#000003E8000001DE
(1554631020.690743) can0 1F5#00003F0000
(1554631020.690744) can0 744#000003003FF000FF
(1554631020.690744) can0 0FB#000C1DC400000844
(1554631020.690745) can0 0F4#18107700000018EB
(1554631020.690745) can0 7CA#8FB6
(1554631020.692947) can0 0FA#40200000000800A6
(1554631020.692947) can0 0FC#00008000180008D5
(1554631020.692948) can0 1F4#000003C000000C89
(1554631020.692948) can0 41B#2120000001600000
(1554631020.694770) can0 0F0#FFC00084BFF80A70
(1554631020.694771) can0 0EE#0000000000000230
(1554631020.694771) can0 0FF#001DC3B67700084C
(1554631020.694771) can0 104#0000000600000AB1
(1554631020.694772) can0 116#010000000000014A
(1554631020.695994) can0 1FA#197A240000000000
(1554631020.695995) can0 2FA#0004CA00
(1554631020.697170) can0 100#4EE1DC3B800009A7
(1554631020.697171) can0 15C#3200010000000FB7
(1554631020.698894) can0 1F8#40FF800000000B31
(1554631020.698895) can0 256#0800007FC4420000
(1554631020.698896) can0 0DE#1BF997D0076E
(1554631020.699970) can0 0FE#8008028000320223
(1554631020.699971) can0 101#000000041FC002C3
(1554631020.699971) can0 103#000003E8000002F9
(1554631020.699972) can0 1F1#FF0000000100016D
(1554631020.701171) can0 0FB#000C1DC400000959
(1554631020.701172) can0 0F4#18107700000019F6
(1554631020.701172) can0 2EF#0F71000000000000
(1554631020.703020) can0 0FA#40200000080800AA
(1554631020.703021) can0 0FC#00008000180009C8
(1554631020.703021) can0 7D0#00
(1554631020.704874) can0 0F0#FFC00084BFF80B6D
(1554631020.704874) can0 0EE#000000000000032D
(1554631020.704875) can0 0FF#001DC3B677000951
(1554631020.704875) can0 104#0000000600000BAC
(1554631020.704876) can0 116#010000000000026D
(1554631020.706354) can0 1EF#8800000000000891
(1554631020.706355) can0 1F2#0000000000000117
(1554631020.706356) can0 1F7#000000B800000000
(1554631020.706356) can0 418#000003D6
(1554631020.707356) can0 100#4EE1DC3B80000A80
(1554631020.709549) can0 1F0#001FE00000000000
(1554631020.709550) can0 0DE#1BF997D008D5
(1554631020.709551) can0 0FE#7FF8028000320307
(1554631020.709551) can0 101#000000041FC003DE
(1554631020.710672) can0 103#000003E8000003E4
(1554631020.710673) can0 1F5#00003F0000
(1554631020.710674) can0 0FB#000C1DC400000A7E
(1554631020.710674) can0 0F4#1810770000001AD1
(1554631020.713482) can0 0FA#40200000100800BE
(1554631020.713483) can0 0FC#0000800018000AEF
(1554631020.713483) can0 1F4#000003C000000D94
(1554631020.713484) can0 2EC#0000000000000000
(1554631020.715130) can0 0F0#FFC00084BFF80C3E
(1554631020.715131) can0 0EE#000000000000047E
(1554631020.715131) can0 0FF#001DC3B677000A76
(1554631020.715132) can0 104#0000000600000CFF
(1554631020.715132) can0 116#0100000000000370
(1554631020.716240) can0 1FA#193A240000000000
(1554631020.716241) can0 2FA#0005D700
(1554631020.716242) can0 5AE#000000041201C400
(1554631020.717384) can0 2ED#7400000000000000
(1554631020.717385) can0 100#4EE1DC3B80000B9D
(1554631020.719011) can0 1F8#40FF800000000C62
(1554631020.719013) can0 0DE#1BF997D009C8
(1554631020.719013) can0 0FE#7FE8008000320494
(1554631020.720167) can0 101#000000041FC0048D
(1554631020.720168) can0 103#000003E8000004B7
(1554631020.720169) can0 1F1#FF0000000100024A
(1554631020.720169) can0 0FB#000C1DC400000B63
(1554631020.721323) can0 0F4#1810770000001BCC
(1554631020.722922) can0 0FA#40200000180800B2
(1554631020.722923) can0 7D0#00
(1554631020.722924) can0 0FC#0000800018000BF2
(1554631020.722924) can0 412#0000053200
(1554631020.724790) can0 0F0#FFC00084BFF80D23
(1554631020.724791) can0 0EE#0000000000000563
(1554631020.724792) can0 0FF#001DC3B677000B6B
(1554631020.724793) can0 104#0000000600000DE2
(1554631020.724794) can0 116#0100000000000423
(1554631020.726339) can0 1EF#880000000000098C
(1554631020.726340) can0 1F2#0000000000000230
(1554631020.726341) can0 1F7#000000B800000000
(1554631020.727363) can0 100#4EE1DC3B80000CCE
(1554631020.728704) can0 416#0235353400000000
(1554631020.728705) can0 1F0#001FE00000000000
(1554631020.728706) can0 0DE#1BF997D00AEF
(1554631020.730270) can0 0FE#7FE7FE80003205C9
(1554631020.730271) can0 101#000000041FC00590
(1554631020.730272) can0 103#000003E8000005AA
(1554631020.730272) can0 1F5#00003F0000
(1554631020.731377) can0 0FB#000C1DC400000C30
(1554631020.731378) can0 0F4#1810770000001C9F
(1554631020.732500) can0 257#001E30518C400000
(1554631020.732501) can0 0FA#4020000020080096
(1554631020.732502) can0 0FC#0000800018000CA1
(1554631020.733738) can0 1F4#000003C000000EB3
(1554631020.734929) can0 0F0#FFC00084BFF80E04
(1554631020.734930) can0 0EE#0000000000000644
(1554631020.734930) can0 0FF#001DC3B677000C38
(1554631020.734931) can0 104#0000000600000EC5
(1554631020.734931) can0 116#010000000000053E
(1554631020.736227) can0 1FA#197A240000000000
(1554631020.736228) can0 190#0010000000000FA5
(1554631020.736229) can0 2FA#0006F000
(1554631020.737362) can0 100#4EE1DC3B80000DD3
(1554631020.739334) can0 1F8#40FF800000000D7F
(1554631020.739335) can0 0DE#1BF997D00BF2
(1554631020.740171) can0 0FE#7FE80080003206AE
(1554631020.740172) can0 101#000000041FC006B7
(1554631020.740172) can0 103#000003E80000068D
(1554631020.740173) can0 1F1#FF00000001000357
(1554631020.741351) can0 0FB#000C1DC400000D2D
(1554631020.741352) can0 0F4#1810770000001D82
(1554631020.743453) can0 0FA#402000002808009A
(1554631020.743454) can0 0FC#0000800018000DBC
(1554631020.743454) can0 7D0#00
(1554631020.744756) can0 0F0#FFC00084BFF80F19
(1554631020.744757) can0 0EE#0000000000000759
(1554631020.744758) can0 0FF#001DC3B677000D25
(1554631020.744758) can0 104#0000000600000FD8
(1554631020.744759) can0 116#0100000000000619
(1554631020.746344) can0 1EF#8800000000000AAB
(1554631020.746346) can0 1F2#000000000000032D
(1554631020.746347) can0 1F7#000000B800000000
(1554631020.747169) can0 100#4EE1DC3B80000EF4
(1554631020.748500) can0 384#081DAA8800C00000
(1554631020.748501) can0 419#8A00000C00000000
(1554631020.748501) can0 1F0#001FE00000000000
(1554631020.748502) can0 0DE#1BF997D00CA1
(1554631020.749940) can0 0FE#8017FF80003207A0
(1554631020.749941) can0 101#000000041FC007AA
(1554631020.749941) can0 103#000003E800000790
(1554631020.749942) can0 1F5#00003F0000
(1554631020.751168) can0 0FB#000C1DC400000E0A
(1554631020.751169) can0 0F4#1810770000001EA5
(1554631020.751170) can0 2EF#0F71000000000000
(1554631020.753047) can0 0FA#402000003008008E
(1554631020.753048) can0 0FC#0000800018000E9B
(1554631020.753049) can0 1F4#000003C000000FAE
(1554631020.754797) can0 0F0#FFC00084BFF800A2
(1554631020.754797) can0 0EE#00000000000008E2
(1554631020.754798) can0 0FF#001DC3B677000E02
(1554631020.754799) can0 104#0000000600000063
(1554631020.754799) can0 116#0100000000000704
(1554631020.756015) can0 1FA#193A240000000000
(1554631020.756016) can0 2FA#0007ED00
(1554631020.757168) can0 100#4EE1DC3B80000FE9
(1554631020.757169) can0 417#C30008C000000000
(1554631020.758842) can0 1F8#40FF800000000E58
(1554631020.758843) can0 259#0000009030000000
(1554631020.758844) can0 0DE#1BF997D00DBC
(1554631020.759940) can0 0FE#7FE7FF8000320822
(1554631020.759941) can0 101#000000041FC00811
(1554631020.759942) can0 103#000003E80000082B
(1554631020.759942) can0 1F1#FF00000001000404
(1554631020.761171) can0 0FB#000C1DC400000F17
(1554631020.761171) can0 0F4#1810770000001FB8
(1554631020.763041) can0 0FA#4020000038080082
(1554631020.763041) can0 0FC#0000800018000F86
(1554631020.763042) can0 2EC#0000000000000000
(1554631020.763042) can0 7D0#00
(1554631020.764871) can0 0F0#FFC00084BFF801BF
(1554631020.764872) can0 0EE#00000000000009FF
(1554631020.764872) can0 0FF#001DC3B677000F1F
(1554631020.764873) can0 104#000000060000017E
(1554631020.764874) can0 116#01000000000008BF
(1554631020.766091) can0 1EF#8800000000000BB6
(1554631020.766092) can0 1F2#000000000000047E
(1554631020.766092) can0 1F7#000000B800000000
(1554631020.767165) can0 2ED#7400000000000000
(1554631020.767166) can0 100#4EE1DC3B80000052
(1554631020.769171) can0 1F0#001FE00000000000
(1554631020.769172) can0 0DE#1BF997D00E9B
(1554631020.769173) can0 0FE#7FF801800032096B
(1554631020.769173) can0 101#000000041FC0090C
(1554631020.770417) can0 103#000003E800000936
(1554631020.770417) can0 1F5#00003F0000
(1554631020.770418) can0 0FB#000C1DC4000000AC
(1554631020.770419) can0 0F4#1810770000001003
(1554631020.773045) can0 0FA#40200000400800C6
(1554631020.773046) can0 0FC#000080001800003D
(1554631020.773047) can0 1F4#000003C000000015
(1554631020.774791) can0 0F0#FFC00084BFF80298
(1554631020.774792) can0 0EE#0000000000000AD8
(1554631020.774792) can0 0FF#001DC3B6770000A4
(1554631020.774793) can0 104#0000000600000259
(1554631020.774793) can0 116#01000000000009A2
(1554631020.776015) can0 1FA#197A240000000000
(1554631020.776016) can0 2FA#00085600
(1554631020.776017) can0 736#0832323CC1000000
(1554631020.777170) can0 100#4EE1DC3B8000014F
(1554631020.778390) can0 41A#A44600A88F4660
(1554631020.778391) can0 1F8#40FF800000000F45
(1554631020.778392) can0 0DE#1BF997D00F86
(1554631020.779942) can0 0FE#8028018000320A5D
(1554631020.779942) can0 101#000000041FC00A2B
(1554631020.779943) can0 103#000003E800000A11
(1554631020.779943) can0 1F1#FF00000001000519
(1554631020.781170) can0 0FB#000C1DC4000001B1
(1554631020.781171) can0 0F4#181077000000111E
(1554631020.782966) can0 0FA#40200000480800CA
(1554631020.782966) can0 0FC#0000800018000120
(1554631020.782967) can0 7D0#00
(1554631020.784796) can0 0F0#FFC00084BFF80385
(1554631020.784797) can0 0EE#0000000000000BC5
(1554631020.784797) can0 0FF#001DC3B6770001B9
(1554631020.784800) can0 104#0000000600000344
(1554631020.784801) can0 116#0100000000000A85
(1554631020.786015) can0 1EF#8800000000000CE5
(1554631020.786016) can0 190#001000000000001E
(1554631020.786017) can0 1F2#0000000000000563
(1554631020.786017) can0 1F7#000000B800000000
(1554631020.787169) can0 100#4EE1DC3B80000268
(1554631020.788395) can0 2EE#88C00000
(1554631020.788396) can0 41E#FFFDFFFEFF0000C0
(1554631020.788396) can0 420#FF6FF6FF6FF60000
(1554631020.788397) can0 1F0#001FE00000000000
(1554631020.788397) can0 0DE#1BF997D0003D
(1554631020.789943) can0 0FE#8007FF8000320B28
(1554631020.789944) can0 101#000000041FC00B36
(1554631020.789945) can0 103#000003E800000B0C
(1554631020.789945) can0 1F5#00003F0000
(1554631020.791168) can0 0FB#000C1DC400000296
(1554631020.791168) can0 0F4#1810770000001239
(1554631020.793045) can0 0FA#40200000500800DE
(1554631020.793046) can0 0FC#0000800018000207
(1554631020.793047) can0 1F4#000003C000000108
(1554631020.793047) can0 41B#21A0000001600000
(1554631020.794824) can0 0F0#FFC00084BFF804D6
(1554631020.794825) can0 0EE#0000000000000C96
(1554631020.794826) can0 0FF#001DC3B67700029E
(1554631020.794826) can0 104#0000000600000417
(1554631020.794827) can0 116#0100000000000B98
(1554631020.796019) can0 1FA#197A240000000000
(1554631020.796020) can0 2FA#00094B00
(1554631020.797170) can0 100#4EE1DC3B80000375
(1554631020.797171) can0 15C#320001000000000C
(1554631020.798943) can0 1F8#40FF8000000000FE
(1554631020.798944) can0 256#0800007FC4420000
(1554631020.798944) can0 0DE#1BF997D00120
(1554631020.799968) can0 0FE#7FF7FF8000320C42
(1554631020.799969) can0 101#000000041FC00C65
(1554631020.799970) can0 103#000003E800000C5F
(1554631020.799970) can0 1F1#FF0000000100063E
(1554631020.801169) can0 0FB#000C1DC40000038B
(1554631020.801170) can0 0F4#1810770000001324
(1554631020.801171) can0 2EF#0F71000000000000
(1554631020.803043) can0 0FA#40200000580800D2
(1554631020.803044) can0 0FC#000080001800031A
(1554631020.803044) can0 7D0#00
(1554631020.804795) can0 0F0#FFC00084BFF805CB
(1554631020.804796) can0 0EE#0000000000000D8B
(1554631020.804796) can0 0FF#001DC3B677000383
(1554631020.804797) can0 104#000000060000050A
(1554631020.804797) can0 116#0100000000000CCB
(1554631020.806022) can0 1EF#8800000000000DF8
(1554631020.806022) can0 1F2#0000000000000644
(1554631020.806023) can0 1F7#000000B800000000
(1554631020.806024) can0 418#00000485
(1554631020.807167) can0 100#4EE1DC3B80000426
(1554631020.809197) can0 1F0#001FE00000000000
(1554631020.809197) can0 0DE#1BF997D00207
(1554631020.809198) can0 0FE#7FF7FF8000320D5F
(1554631020.809198) can0 101#000000041FC00D78
(1554631020.810443) can0 103#000003E800000D42
(1554631020.810444) can0 1F5#00003F0000
(1554631020.810444) can0 0FB#000C1DC4000004D8
(1554631020.810445) can0 0F4#1810770000001477
(1554631020.812995) can0 0FA#40200000600800F6
(1554631020.812996) can0 0FC#0000800018000449
(1554631020.812996) can0 1F4#000003C00000022F
(1554631020.812997) can0 2EC#0000000000000000
(1554631020.814793) can0 0F0#FFC00084BFF806EC
(1554631020.814793) can0 0EE#0000000000000EAC
(1554631020.814794) can0 0FF#001DC3B6770004D0
(1554631020.814794) can0 104#000000060000062D
(1554631020.814795) can0 116#0100000000000DD6
(1554631020.816022) can0 1FA#197A240000000000
(1554631020.816023) can0 2FA#000A6C00
(1554631020.817169) can0 2ED#7400000000000000
(1554631020.817170) can0 100#4EE1DC3B8000053B
(1554631020.818993) can0 1F8#40FF8000000001E3
(1554631020.818994) can0 0DE#1BF997D0031A
(1554631020.818994) can0 0FE#8007FF8000320E41
(1554631020.820193) can0 101#000000041FC00E5F
(1554631020.820194) can0 103#000003E800000E65
(1554631020.820194) can0 1F1#FF00000001000723
(1554631020.820195) can0 0FB#000C1DC4000005C5
(1554631020.821421) can0 0F4#181077000000156A
(1554631020.823066) can0 0FA#40200000680800FA
(1554631020.823067) can0 0FC#0000800018000554
(1554631020.823067) can0 412#0000053200
(1554631020.823068) can0 7D0#00
(1554631020.824876) can0 0F0#FFC00084BFF807F1
(1554631020.824876) can0 0EE#0000000000000FB1
(1554631020.824877) can0 0FF#001DC3B6770005CD
(1554631020.824877) can0 104#0000000600000730
(1554631020.824878) can0 116#0100000000000EF1
(1554631020.826092) can0 1EF#8800000000000EDF
(1554631020.826093) can0 1F2#0000000000000759
(1554631020.826093) can0 1F7#000000B800000000
(1554631020.827167) can0 100#4EE1DC3B8000061C
(1554631020.828521) can0 416#0031433442553030
(1554631020.828521) can0 1F0#001FE00000000000
(1554631020.828522) can0 0DE#1BF997D00449
(1554631020.829943) can0 0FE#8007FF8000320F5C
(1554631020.829944) can0 101#000000041FC00F42
(1554631020.829944) can0 103#000003E800000F78
(1554631020.829945) can0 1F5#00003F0000
(1554631020.831169) can0 0FB#000C1DC4000006E2
(1554631020.831170) can0 0F4#181077000000164D
(1554631020.831171) can0 257#001E30518C400000
(1554631020.832994) can0 0FA#40200000700800EE
(1554631020.832995) can0 0FC#0000800018000673
(1554631020.832995) can0 1F4#000003C000000332
(1554631020.834766) can0 0F0#FFC00084BFF8084A
(1554631020.834767) can0 0EE#000000000000000A
(1554631020.834767) can0 0FF#001DC3B6770006EA
(1554631020.834768) can0 104#000000060000088B
(1554631020.834768) can0 116#0100000000000FEC
(1554631020.835992) can0 1FA#197A240000000000
(1554631020.835992) can0 190#0010000000000103
(1554631020.835993) can0 2FA#000B7100
(1554631020.837169) can0 100#4EE1DC3B80000701
(1554631020.838844) can0 1F8#40FF8000000002C4
(1554631020.838844) can0 41C#0008000000000100
(1554631020.838845) can0 0DE#1BF997D00554
(1554631020.839967) can0 0FE#7FE80080003200E0
(1554631020.839967) can0 101#000000041FC000F9
(1554631020.839968) can0 103#000003E8000000C3
(1554631020.839968) can0 1F1#FF00000001000898
(1554631020.841194) can0 0FB#000C1DC4000007FF
(1554631020.841195) can0 0F4#1810770000001750
(1554631020.843069) can0 0FA#40200000780800E2
(1554631020.843070) can0 0FC#000080001800076E
(1554631020.843070) can0 7D0#00
(1554631020.844794) can0 0F0#FFC00084BFF80957
(1554631020.844795) can0 0EE#0000000000000117
(1554631020.844795) can0 0FF#001DC3B6770007F7
(1554631020.844796) can0 104#0000000600000996
(1554631020.844796) can0 116#0100000000000057
(1554631020.846018) can0 1EF#8800000000000FC2
(1554631020.846018) can0 1F2#00000000000008E2
(1554631020.846019) can0 1F7#000000B800000000
(1554631020.847169) can0 100#4EE1DC3B800008BA
(1554631020.848520) can0 419#8A00000C00000000
(1554631020.848520) can0 1F0#001FE00000000000
(1554631020.848521) can0 0DE#1BF997D00673
(1554631020.849918) can0 0FE#7FF8018000320183
(1554631020.849919) can0 101#000000041FC001E4
(1554631020.849919) can0 103#000003E8000001DE
(1554631020.849920) can0 1F5#00003F0000
(1554631020.851166) can0 0FB#000C1DC400000844
(1554631020.851167) can0 0F4#18107700000018EB
(1554631020.851167) can0 2EF#0F71000000000000
(1554631020.853072) can0 0FA#40200000000800A6
(1554631020.853073) can0 0FC#00008000180008D5
(1554631020.853074) can0 1F4#000003C000000461
(1554631020.854791) can0 0F0#FFC00084BFF80A70
(1554631020.854792) can0 0EE#0000000000000230
(1554631020.854792) can0 0FF#001DC3B67700084C
(1554631020.854793) can0 104#0000000600000AB1
(1554631020.854793) can0 116#010000000000014A
(1554631020.856018) can0 1FA#197A240000000000
(1554631020.856019) can0 2FA#000C2200
(1554631020.857169) can0 100#4EE1DC3B800009A7
(1554631020.857169) can0 417#C30008C000000000
(1554631020.858944) can0 1F8#40FF8000000003D9
(1554631020.858944) can0 259#0000009030000000
(1554631020.858945) can0 0DE#1BF997D0076E
(1554631020.858945) can0 0FE#7FF80080003202CE
(1554631020.860200) can0 101#000000041FC002C3
(1554631020.860200) can0 103#000003E8000002F9
(1554631020.860201) can0 1F1#FF00000001000985
(1554631020.860201) can0 0FB#000C1DC400000959
(1554631020.861421) can0 0F4#18107700000019F6
(1554631020.863073) can0 0FA#40200000080800AA
(1554631020.863074) can0 0FC#00008000180009C8
(1554631020.863074) can0 2EC#0000000000000000
(1554631020.863075) can0 7D0#00
(1554631020.864794) can0 0F0#FFC00084BFF80B6D
(1554631020.864795) can0 0EE#000000000000032D
(1554631020.864795) can0 0FF#001DC3B677000951
(1554631020.864796) can0 104#0000000600000BAC
(1554631020.864796) can0 116#010000000000026D
(1554631020.865991) can0 1EF#8800000000000079
(1554631020.865992) can0 1F2#00000000000009FF
(1554631020.865992) can0 1F7#000000B800000000
(1554631020.867173) can0 2ED#7400000000000000
(1554631020.867173) can0 100#4EE1DC3B80000A80
(1554631020.869193) can0 1F0#001FE00000000000
(1554631020.869194) can0 0DE#1BF997D008D5
(1554631020.869194) can0 0FE#7FF7FF80003203F9
(1554631020.869195) can0 101#000000041FC003DE
(1554631020.870465) can0 103#000003E8000003E4
(1554631020.870466) can0 1F5#00003F0000
(1554631020.870466) can0 0FB#000C1DC400000A7E
(1554631020.871717) can0 0F4#1810770000001AD1
(1554631020.873299) can0 0FA#40200000100800BE
(1554631020.873300) can0 0FC#0000800018000AEF
(1554631020.873300) can0 1F4#000003C00000057C
(1554631020.875164) can0 0F0#FFC00084BFF80C3E
(1554631020.875165) can0 0EE#000000000000047E
(1554631020.875166) can0 0FF#001DC3B677000A76
(1554631020.875166) can0 104#0000000600000CFF
(1554631020.875167) can0 116#0100000000000370
(1554631020.876228) can0 1FA#197A240000000000
(1554631020.876228) can0 2FA#000D3F00
(1554631020.876229) can0 736#0832323CC1000000
(1554631020.877383) can0 100#4EE1DC3B80000B9D
(1554631020.878644) can0 41A#A44600A88F4660
(1554631020.878645) can0 545#681746078011C000
(1554631020.878645) can0 1F8#40FF80000000048A
(1554631020.878646) can0 0DE#1BF997D009C8
(1554631020.880275) can0 0FE#80080080003204B9
(1554631020.880276) can0 101#000000041FC0048D
(1554631020.880276) can0 103#000003E8000004B7
(1554631020.880277) can0 1F1#FF00000001000AA2
(1554631020.880277) can0 5E0#0043890000000846
(1554631020.881367) can0 0FB#000C1DC400000B63
(1554631020.881368) can0 0F4#1810770000001BCC
(1554631020.883475) can0 0FA#40200000180800B2
(1554631020.883476) can0 0FC#0000800018000BF2
(1554631020.883477) can0 7D0#00
(1554631020.885170) can0 0F0#FFC00084BFF80D23
(1554631020.885173) can0 0EE#0000000000000563
(1554631020.885174) can0 0FF#001DC3B677000B6B
(1554631020.885175) can0 104#0000000600000DE2
(1554631020.885175) can0 116#0100000000000423
(1554631020.886319) can0 190#0010000000000224
(1554631020.886320) can0 1EF#8800000000000164
(1554631020.886321) can0 1F2#0000000000000AD8
(1554631020.886321) can0 1F7#000000B800000000
(1554631020.887363) can0 100#4EE1DC3B80000CCE
(1554631020.888709) can0 2EE#88400000
(1554631020.888710) can0 41E#FFFDFFFEFF0000C0
(1554631020.888711) can0 420#FF6FF6FF6FF60000
(1554631020.888711) can0 1F0#001FE00000000000
(1554631020.888712) can0 0DE#1BF997D00AEF
(1554631020.890264) can0 0FE#8007FE80003205E4
(1554631020.890265) can0 101#000000041FC00590
(1554631020.890266) can0 103#000003E8000005AA
(1554631020.890266) can0 1F5#00003F0000
(1554631020.891377) can0 0FB#000C1DC400000C30
(1554631020.891377) can0 0F4#1810770000001C9F
(1554631020.893475) can0 0FA#4020000020080096
(1554631020.893476) can0 0FC#0000800018000CA1
(1554631020.893476) can0 1F4#000003C00000065B
(1554631020.893477) can0 41B#21A0000001600000
(1554631020.895124) can0 0F0#FFC00084BFF80E04
(1554631020.895125) can0 0EE#0000000000000644
(1554631020.895125) can0 0FF#001DC3B677000C38
(1554631020.895126) can0 104#0000000600000EC5
(1554631020.895127) can0 116#010000000000053E
(1554631020.896260) can0 1FA#197A240000000000
(1554631020.896261) can0 2FA#000E1800
(1554631020.897383) can0 100#4EE1DC3B80000DD3
(1554631020.897384) can0 15C#3200010000000111
(1554631020.899353) can0 1F8#40FF800000000597
(1554631020.899354) can0 256#0800007FC4420000
(1554631020.899354) can0 0DE#1BF997D00BF2
(1554631020.899355) can0 0FE#7FE7FE80003206EE
(1554631020.900358) can0 101#000000041FC006B7
(1554631020.900359) can0 103#000003E80000068D
(1554631020.900360) can0 1F1#FF00000001000BBF
(1554631020.900360) can0 0FB#000C1DC400000D2D
(1554631020.901702) can0 0F4#1810770000001D82
(1554631020.901703) can0 2EF#0F71000000000000
(1554631020.903443) can0 0FA#402000002808009A
(1554631020.903444) can0 0FC#0000800018000DBC
(1554631020.903444) can0 7D0#00
(1554631020.905144) can0 0F0#FFC00084BFF80F19
(1554631020.905145) can0 0EE#0000000000000759
(1554631020.905145) can0 0FF#001DC3B677000D25
(1554631020.905146) can0 104#0000000600000FD8
(1554631020.905146) can0 116#0100000000000619
(1554631020.906264) can0 1EF#8800000000000243
(1554631020.906265) can0 1F2#0000000000000BC5
(1554631020.906265) can0 1F7#000000B800000000
(1554631020.906266) can0 418#00000598
(1554631020.907373) can0 100#4EE1DC3B80000EF4
(1554631020.907374) can0 1E360001#05
(1554631020.908796) can0 73E#02008000
(1554631020.908797) can0 1F0#001FE00000000000
(1554631020.908797) can0 0DE#1BF997D00CA1
(1554631020.910222) can0 0FE#7FE7FF8000320799
(1554631020.910223) can0 101#000000041FC007AA
(1554631020.910224) can0 103#000003E800000790
(1554631020.910225) can0 1F5#00003F0000
(1554631020.911386) can0 0FB#000C1DC400000E0A
(1554631020.911387) can0 0F4#1810770000001EA5
(1554631020.913457) can0 0FA#402000003008008E
(1554631020.913458) can0 0FC#0000800018000E9B
(1554631020.913458) can0 1F4#000003C000000746
(1554631020.913459) can0 2EC#0000000000000000
(1554631020.915189) can0 0F0#FFC00084BFF800A2
(1554631020.915190) can0 0EE#00000000000008E2
(1554631020.915190) can0 0FF#001DC3B677000E02
(1554631020.915194) can0 104#0000000600000063
(1554631020.915194) can0 116#0100000000000704
(1554631020.916324) can0 1FA#193A240000000000
(1554631020.916325) can0 2FA#000F0500
(1554631020.917367) can0 2ED#7400000000000000
(1554631020.917368) can0 100#4EE1DC3B80000FE9
(1554631020.919299) can0 1F8#40FF8000000006B0
(1554631020.919300) can0 0DE#1BF997D00DBC
(1554631020.920144) can0 0FE#7FE7FE8000320848
(1554631020.920145) can0 101#000000041FC00811
(1554631020.920145) can0 103#000003E80000082B
(1554631020.920146) can0 1F1#FF00000001000CEC
(1554631020.921405) can0 0FB#000C1DC400000F17
(1554631020.921406) can0 0F4#1810770000001FB8
(1554631020.923379) can0 0FA#4020000038080082
(1554631020.923379) can0 0FC#0000800018000F86
(1554631020.923380) can0 412#0000053200
(1554631020.923381) can0 7D0#00
(1554631020.925181) can0 0F0#FFC00084BFF801BF
(1554631020.925182) can0 0EE#00000000000009FF
(1554631020.925183) can0 0FF#001DC3B677000F1F
(1554631020.925183) can0 104#000000060000017E
(1554631020.925184) can0 116#01000000000008BF
(1554631020.926258) can0 1EF#880000000000035E
(1554631020.926258) can0 1F2#0000000000000C96
(1554631020.926259) can0 1F7#000000B800000000
(1554631020.926260) can0 1E36000B#05
(1554631020.927374) can0 100#4EE1DC3B80000052
(1554631020.928854) can0 416#0130304850453836
(1554631020.928855) can0 1E360003#05
(1554631020.928856) can0 1F0#001FE00000000000
(1554631020.928857) can0 0DE#1BF997D00E9B
(1554631020.930233) can0 0FE#7FF7FF800032092B
(1554631020.930234) can0 101#000000041FC0090C
(1554631020.930234) can0 103#000003E800000936
(1554631020.930235) can0 1F5#00003F0000
(1554631020.931381) can0 0FB#000C1DC4000000AC
(1554631020.931382) can0 0F4#1810770000001003
(1554631020.931383) can0 257#001E30518C400000
(1554631020.933503) can0 0FA#40200000400800C6
(1554631020.933504) can0 0FC#000080001800003D
(1554631020.933504) can0 1F4#000003C0000008FD
(1554631020.935154) can0 0F0#FFC00084BFF80298
(1554631020.935155) can0 0EE#0000000000000AD8
(1554631020.935156) can0 0FF#001DC3B6770000A4
(1554631020.935156) can0 104#0000000600000259
(1554631020.935157) can0 116#01000000000009A2
(1554631020.936258) can0 1FA#197A240000000000
(1554631020.936259) can0 190#0010000000000339
(1554631020.936260) can0 2FA#0000BE00
(1554631020.937378) can0 100#4EE1DC3B8000014F
(1554631020.938763) can0 4B1#05C0000700000000
(1554631020.938764) can0 1F8#40FF8000000007AD
(1554631020.938764) can0 0DE#1BF997D00F86
(1554631020.940254) can0 0FE#7FF8008000320A26
(1554631020.940254) can0 101#000000041FC00A2B
(1554631020.940255) can0 103#000003E800000A11
(1554631020.940256) can0 1F1#FF00000001000DF1
(1554631020.941376) can0 0FB#000C1DC4000001B1
(1554631020.941377) can0 0F4#181077000000111E
(1554631020.943501) can0 0FA#40200000480800CA
(1554631020.943502) can0 0FC#0000800018000120
(1554631020.943503) can0 7D0#00
(1554631020.945226) can0 0F0#FFC00084BFF80385
(1554631020.945227) can0 0EE#0000000000000BC5
(1554631020.945228) can0 0FF#001DC3B6770001B9
(1554631020.945229) can0 104#0000000600000344
(1554631020.945229) can0 116#0100000000000A85
(1554631020.946338) can0 1EF#880000000000040D
(1554631020.946339) can0 1F2#0000000000000D8B
(1554631020.946340) can0 1F7#000000B800000000
(1554631020.947364) can0 100#4EE1DC3B80000268
(1554631020.948860) can0 419#8A00000C00000000
(1554631020.948864) can0 1F0#001FE00000000000
(1554631020.948864) can0 0DE#1BF997D0003D
(1554631020.950202) can0 0FE#7FF8028000320BEF
(1554631020.950203) can0 101#000000041FC00B36
(1554631020.950204) can0 103#000003E800000B0C
(1554631020.950205) can0 1F5#00003F0000
(1554631020.951386) can0 0FB#000C1DC400000296
(1554631020.951387) can0 0F4#1810770000001239
(1554631020.951387) can0 2EF#0F71000000000000
(1554631020.953078) can0 0FA#40200000500800DE
(1554631020.953079) can0 0FC#0000800018000207
(1554631020.953079) can0 1F4#000003C0000009E0
(1554631020.955202) can0 0F0#FFC00084BFF804D6
(1554631020.955203) can0 0EE#0000000000000C96
(1554631020.955203) can0 0FF#001DC3B67700029E
(1554631020.955204) can0 104#0000000600000417
(1554631020.955205) can0 116#0100000000000B98
(1554631020.956222) can0 1FA#193A240000000000
(1554631020.956223) can0 2FA#0001A300
(1554631020.956224) can0 738#0000000000
(1554631020.957389) can0 100#4EE1DC3B80000375
(1554631020.957390) can0 417#C30008C000000000
(1554631020.959411) can0 1F8#40FF800000000816
(1554631020.959412) can0 0DE#1BF997D00120
(1554631020.959412) can0 259#0000009030000000
(1554631020.959413) can0 0FE#8008018000320C3B
(1554631020.960347) can0 101#000000041FC00C65
(1554631020.960348) can0 103#000003E800000C5F
(1554631020.960349) can0 1F1#FF00000001000ED6
(1554631020.960350) can0 1E360041#05
(1554631020.960350) can0 0FB#000C1DC40000038B
(1554631020.961698) can0 0F4#1810770000001324
(1554631020.963445) can0 0FA#40200000580800D2
(1554631020.963446) can0 0FC#000080001800031A
(1554631020.963446) can0 2EC#0000000000000000
(1554631020.963447) can0 7D0#00
(1554631020.965168) can0 0F0#FFC00084BFF805CB
(1554631020.965169) can0 0EE#0000000000000D8B
(1554631020.965170) can0 0FF#001DC3B677000383
(1554631020.965170) can0 104#000000060000050A
(1554631020.965171) can0 116#0100000000000CCB
(1554631020.966261) can0 1EF#8800000000000510
(1554631020.966262) can0 1F2#0000000000000EAC
(1554631020.966262) can0 1F7#000000B800000000
(1554631020.967384) can0 2ED#7400000000000000
(1554631020.967385) can0 100#4EE1DC3B80000426
(1554631020.969546) can0 1F0#001FE00000000000
(1554631020.969547) can0 0DE#1BF997D00207
(1554631020.969547) can0 0FE#8007FF8000320D66
(1554631020.969548) can0 101#000000041FC00D78
(1554631020.970663) can0 103#000003E800000D42
(1554631020.970664) can0 1F5#00003F0000
(1554631020.970665) can0 0FB#000C1DC4000004D8
(1554631020.971642) can0 0F4#1810770000001477
(1554631020.973461) can0 0FA#40200000600800F6
(1554631020.973462) can0 0FC#0000800018000449
(1554631020.973463) can0 1F4#000003C000000AC7
(1554631020.975169) can0 0F0#FFC00084BFF806EC
(1554631020.975170) can0 0EE#0000000000000EAC
(1554631020.975171) can0 0FF#001DC3B6770004D0
(1554631020.975171) can0 104#000000060000062D
(1554631020.975172) can0 116#0100000000000DD6
(1554631020.976294) can0 1FA#197A240000000000
(1554631020.976295) can0 2FA#00028400
(1554631020.976296) can0 736#0832323CC1000000
(1554631020.977366) can0 100#4EE1DC3B8000053B
(1554631020.978665) can0 41A#A44600A88F4660
(1554631020.978666) can0 1F8#40FF80000000090B
(1554631020.978667) can0 0DE#1BF997D0031A
(1554631020.980273) can0 0FE#8007FF8000320E41
(1554631020.980274) can0 101#000000041FC00E5F
(1554631020.980275) can0 103#000003E800000E65
(1554631020.980275) can0 1F1#FF00000001000FCB
(1554631020.981365) can0 0FB#000C1DC4000005C5
(1554631020.981366) can0 0F4#181077000000156A
(1554631020.983145) can0 0FA#40200000680800FA
(1554631020.983146) can0 0FC#0000800018000554
(1554631020.983146) can0 7D0#00
(1554631020.985201) can0 0F0#FFC00084BFF807F1
(1554631020.985202) can0 0EE#0000000000000FB1
(1554631020.985202) can0 0FF#001DC3B6770005CD
(1554631020.985203) can0 104#0000000600000730
(1554631020.985203) can0 116#0100000000000EF1
(1554631020.986254) can0 1EF#8800000000000637
(1554631020.986255) can0 190#001000000000046A
(1554631020.986255) can0 1F2#0000000000000FB1
(1554631020.986256) can0 1F7#000000B800000000
(1554631020.987374) can0 100#4EE1DC3B8000061C
(1554631020.988767) can0 2EE#88800000
(1554631020.988768) can0 41E#FFFDFFFEFF0000C0
(1554631020.988769) can0 420#FF6FF6FF6FF60000
(1554631020.988770) can0 0DE#1BF997D00449
(1554631020.988770) can0 1F0#001FE00000000000
(1554631020.990252) can0 0FE#7FF8008000320F4F
(1554631020.990253) can0 101#000000041FC00F42
(1554631020.990254) can0 103#000003E800000F78
(1554631020.990254) can0 1F5#00003F0000
(1554631020.991379) can0 0FB#000C1DC4000006E2
(1554631020.991380) can0 0F4#181077000000164D
(1554631020.993531) can0 0FA#40200000700800EE
(1554631020.993532) can0 0FC#0000800018000673
(1554631020.993532) can0 1F4#000003C000000BDA
(1554631020.993533) can0 41B#21A0000001600000
(1554631020.994967) can0 0F0#FFC00084BFF8084A
(1554631020.994968) can0 0EE#000000000000000A
(1554631020.994968) can0 0FF#001DC3B6770006EA
(1554631020.994969) can0 104#000000060000088B
(1554631020.994969) can0 116#0100000000000FEC
(1554631020.996299) can0 1FA#197A240000000000
(1554631020.996300) can0 2FA#00039900
(1554631020.997363) can0 100#4EE1DC3B80000701
(1554631020.997364) can0 15C#3200010000000236
(1554631020.998729) can0 384#081DAA8800C00000
(1554631020.998730) can0 1F8#40FF800000000A2C
(1554631020.998731) can0 0DE#1BF997D00554
(1554631020.999692) can0 256#0800007FC4420000
(1554631020.999693) can0 0FE#80080180003200A7
(1554631020.999694) can0 101#000000041FC000F9
(1554631021.000701) can0 103#000003E8000000C3
(1554631021.000702) can0 1F1#FF00000001000070
(1554631021.000703) can0 0FB#000C1DC4000007FF
(1554631021.000703) can0 0F4#1810770000001750
(1554631021.001694) can0 2EF#0F71000000000000
(1554631021.003145) can0 0FA#40200000780800E2
(1554631021.003146) can0 0FC#000080001800076E
(1554631021.003146) can0 7D0#00
(1554631021.005313) can0 0F0#FFC00084BFF80957
(1554631021.005314) can0 0EE#0000000000000117
(1554631021.005314) can0 0FF#001DC3B6770007F7
(1554631021.005315) can0 104#0000000600000996
(1554631021.005315) can0 116#0100000000000057
(1554631021.006316) can0 1EF#880000000000072A
(1554631021.006317) can0 1F2#000000000000000A
(1554631021.006317) can0 1F7#000000B800000000
(1554631021.006318) can0 418#000006BF
(1554631021.006318) can0 4AF#0020000000000000
(1554631021.007505) can0 100#4EE1DC3B800008BA
(1554631021.009529) can0 1F0#001FE00000000000
(1554631021.009530) can0 0DE#1BF997D00673
(1554631021.009531) can0 0FE#7FF802800032013D
(1554631021.009531) can0 101#000000041FC001E4
(1554631021.010665) can0 103#000003E8000001DE
(1554631021.010665) can0 1F5#00003F0000
(1554631021.010666) can0 0FB#000C1DC400000844
(1554631021.011675) can0 0F4#18107700000018EB
(1554631021.013487) can0 0FA#40200000000800A6
(1554631021.013492) can0 0FC#00008000180008D5
(1554631021.013492) can0 1F4#000003C000000C89
(1554631021.013493) can0 2EC#0000000000000000
(1554631021.015152) can0 0F0#FFC00084BFF80A70
(1554631021.015153) can0 0EE#0000000000000230
(1554631021.015153) can0 0FF#001DC3B67700084C
(1554631021.015154) can0 104#0000000600000AB1
(1554631021.015155) can0 116#010000000000014A
(1554631021.016262) can0 1FA#197A240000000000
(1554631021.016263) can0 2FA#0004CA00
(1554631021.017378) can0 2ED#7400000000000000
(1554631021.017379) can0 100#4EE1DC3B800009A7
(1554631021.019286) can0 1F8#40FF800000000B31
(1554631021.019287) can0 0DE#1BF997D0076E
(1554631021.020150) can0 0FE#7FF80080003202CE
(1554631021.020151) can0 101#000000041FC002C3
(1554631021.020151) can0 103#000003E8000002F9
(1554631021.020152) can0 1F1#FF0000000100016D
(1554631021.021405) can0 0FB#000C1DC400000959
(1554631021.021406) can0 0F4#18107700000019F6
(1554631021.023465) can0 0FA#40200000080800AA
(1554631021.023466) can0 0FC#00008000180009C8
(1554631021.023466) can0 412#0000053200
(1554631021.023467) can0 7D0#00
(1554631021.025160) can0 0F0#FFC00084BFF80B6D
(1554631021.025161) can0 0EE#000000000000032D
(1554631021.025162) can0 0FF#001DC3B677000951
(1554631021.025163) can0 104#0000000600000BAC
(1554631021.025163) can0 116#010000000000026D
(1554631021.026258) can0 1EF#8800000000000891
(1554631021.026259) can0 1F2#0000000000000117
(1554631021.026259) can0 1F7#000000B800000000
(1554631021.027379) can0 100#4EE1DC3B80000A80
(1554631021.028886) can0 416#0235353400000000
(1554631021.028887) can0 1F0#001FE00000000000
(1554631021.028888) can0 0DE#1BF997D008D5
(1554631021.030226) can0 0FE#7FF80080003203D3
(1554631021.030227) can0 101#000000041FC003DE
(1554631021.030228) can0 103#000003E8000003E4
(1554631021.030228) can0 1F5#00003F0000
(1554631021.031387) can0 0FB#000C1DC400000A7E
(1554631021.031388) can0 0F4#1810770000001AD1
(1554631021.031388) can0 257#001E30518C400000
(1554631021.033533) can0 0FA#40200000100800BE
(1554631021.033534) can0 0FC#0000800018000AEF
(1554631021.033535) can0 1F4#000003C000000D94
(1554631021.035143) can0 0F0#FFC00084BFF80C3E
(1554631021.035144) can0 0EE#000000000000047E
(1554631021.035145) can0 0FF#001DC3B677000A76
(1554631021.035145) can0 104#0000000600000CFF
(1554631021.035146) can0 116#0100000000000370
(1554631021.036224) can0 1FA#197A240000000000
(1554631021.036225) can0 190#0010000000000577
(1554631021.036226) can0 2FA#0005D700
(1554631021.037383) can0 100#4EE1DC3B80000B9D
(1554631021.039298) can0 1F8#40FF800000000C62
(1554631021.039299) can0 0DE#1BF997D009C8
(1554631021.040141) can0 0FE#7FF8008000320480
(1554631021.040142) can0 101#000000041FC0048D
(1554631021.040143) can0 103#000003E8000004B7
(1554631021.040144) can0 1F1#FF0000000100024A
(1554631021.041394) can0 0FB#000C1DC400000B63
(1554631021.041395) can0 0F4#1810770000001BCC
(1554631021.043524) can0 0FA#40200000180800B2
(1554631021.043525) can0 0FC#0000800018000BF2
(1554631021.043526) can0 7D0#00
(1554631021.045152) can0 0F0#FFC00084BFF80D23
(1554631021.045154) can0 0EE#0000000000000563
(1554631021.045154) can0 0FF#001DC3B677000B6B
(1554631021.045155) can0 104#0000000600000DE2
(1554631021.045155) can0 116#0100000000000423
(1554631021.046260) can0 1EF#880000000000098C
(1554631021.046261) can0 1F2#0000000000000230
(1554631021.046265) can0 1F7#000000B800000000
(1554631021.047374) can0 100#4EE1DC3B80000CCE
(1554631021.048886) can0 419#8A00000C00000000
(1554631021.048887) can0 1F0#001FE00000000000
(1554631021.048888) can0 0DE#1BF997D00AEF
(1554631021.050197) can0 0FE#7FE7FF80003205A3
(1554631021.050198) can0 101#000000041FC00590
(1554631021.050199) can0 103#000003E8000005AA
(1554631021.050199) can0 1F5#00003F0000
(1554631021.051394) can0 0FB#000C1DC400000C30
(1554631021.051395) can0 0F4#1810770000001C9F
(1554631021.051395) can0 2EF#0F71000000000000
(1554631021.053528) can0 0FA#4020000020080096
(1554631021.053529) can0 0FC#0000800018000CA1
(1554631021.053530) can0 1F4#000003C000000EB3
(1554631021.055116) can0 0F0#FFC00084BFF80E04
(1554631021.055117) can0 0EE#0000000000000644
(1554631021.055118) can0 0FF#001DC3B677000C38
(1554631021.055118) can0 104#0000000600000EC5
(1554631021.055119) can0 116#010000000000053E
(1554631021.056270) can0 1FA#193A240000000000
(1554631021.056271) can0 2FA#0006F000
(1554631021.057382) can0 100#4EE1DC3B80000DD3
(1554631021.057384) can0 417#C30008C000000000
(1554631021.059175) can0 1F8#40FF800000000D7F
(1554631021.059176) can0 259#0000009030000000
(1554631021.059177) can0 0DE#1BF997D00BF2
(1554631021.060171) can0 0FE#7FD8008000320692
(1554631021.060171) can0 101#000000041FC006B7
(1554631021.060172) can0 103#000003E80000068D
(1554631021.060173) can0 1F1#FF00000001000357
(1554631021.061383) can0 0FB#000C1DC400000D2D
(1554631021.061384) can0 0F4#1810770000001D82
(1554631021.063540) can0 0FA#402000002808009A
(1554631021.063541) can0 0FC#0000800018000DBC
(1554631021.063541) can0 2EC#0000000000000000
(1554631021.063542) can0 7D0#00
(1554631021.065241) can0 0F0#FFC00084BFF80F19
(1554631021.065242) can0 0EE#0000000000000759
(1554631021.065242) can0 0FF#001DC3B677000D25
(1554631021.065243) can0 104#0000000600000FD8
(1554631021.065244) can0 116#0100000000000619
(1554631021.066332) can0 1EF#8800000000000AAB
(1554631021.066333) can0 1F2#000000000000032D
(1554631021.066333) can0 1F7#000000B800000000
(1554631021.067361) can0 2ED#7400000000000000
(1554631021.067362) can0 100#4EE1DC3B80000EF4
(1554631021.069541) can0 0DE#1BF997D00CA1
(1554631021.069542) can0 1F0#001FE00000000000
(1554631021.069542) can0 0FE#7FE80180003207D9
(1554631021.070320) can0 101#000000041FC007AA
(1554631021.070321) can0 103#000003E800000790
(1554631021.070321) can0 1F5#00003F0000
(1554631021.071365) can0 0FB#000C1DC400000E0A
(1554631021.071366) can0 0F4#1810770000001EA5
(1554631021.073532) can0 0FA#402000003008008E
(1554631021.073533) can0 0FC#0000800018000E9B
(1554631021.073533) can0 1F4#000003C000000FAE
(1554631021.075147) can0 0F0#FFC00084BFF800A2
(1554631021.075148) can0 0EE#00000000000008E2
(1554631021.075149) can0 0FF#001DC3B677000E02
(1554631021.075150) can0 104#0000000600000063
(1554631021.075150) can0 116#0100000000000704
(1554631021.076292) can0 1FA#197A240000000000
(1554631021.076292) can0 2FA#0007ED00
(1554631021.076293) can0 736#0832323CC1000000
(1554631021.077290) can0 100#4EE1DC3B80000FE9
(1554631021.078721) can0 41A#A44600A88F4660
(1554631021.078722) can0 1F8#40FF800000000E58
(1554631021.078722) can0 0DE#1BF997D00DBC
(1554631021.080262) can0 0FE#7FE7FE8000320848
(1554631021.080263) can0 101#000000041FC00811
(1554631021.080264) can0 103#000003E80000082B
(1554631021.080268) can0 1F1#FF00000001000404
(1554631021.081382) can0 0FB#000C1DC400000F17
(1554631021.081384) can0 0F4#1810770000001FB8
(1554631021.083539) can0 0FA#4020000038080082
(1554631021.083540) can0 0FC#0000800018000F86
(1554631021.083541) can0 7D0#00
(1554631021.085153) can0 0F0#FFC00084BFF801BF
(1554631021.085154) can0 0EE#00000000000009FF
(1554631021.085154) can0 0FF#001DC3B677000F1F
(1554631021.085155) can0 104#000000060000017E
(1554631021.085155) can0 116#01000000000008BF
(1554631021.086258) can0 1EF#8800000000000BB6
(1554631021.086259) can0 190#0010000000000650
(1554631021.086259) can0 1F2#000000000000047E
(1554631021.086260) can0 1F7#000000B800000000
(1554631021.087376) can0 100#4EE1DC3B80000052
(1554631021.088795) can0 2EE#88400000
(1554631021.088796) can0 41E#FFFDFFFEFF0000C0
(1554631021.088796) can0 420#FF6FF6FF6FF60000
(1554631021.088797) can0 0DE#1BF997D00E9B
(1554631021.088798) can0 1F0#001FE00000000000
(1554631021.090240) can0 0FE#8017FF8000320906
(1554631021.090241) can0 101#000000041FC0090C
(1554631021.090242) can0 103#000003E800000936
(1554631021.090242) can0 1F5#00003F0000
(1554631021.091380) can0 0FB#000C1DC4000000AC
(1554631021.091381) can0 0F4#1810770000001003
(1554631021.093539) can0 0FA#40200000400800C6
(1554631021.093540) can0 0FC#000080001800003D
(1554631021.093540) can0 1F4#000003C000000015
(1554631021.093541) can0 41B#21A0000001600000
(1554631021.095144) can0 0F0#FFC00084BFF80298
(1554631021.095145) can0 0EE#0000000000000AD8
(1554631021.095146) can0 0FF#001DC3B6770000A4
(1554631021.095146) can0 104#0000000600000259
(1554631021.095147) can0 116#01000000000009A2
(1554631021.096296) can0 1FA#197A240000000000
(1554631021.096297) can0 2FA#00085600
(1554631021.097363) can0 100#4EE1DC3B8000014F
(1554631021.097364) can0 15C#320001000000032B
(1554631021.099243) can0 1F8#40FF800000000F45
(1554631021.099244) can0 256#0800007FC4420000
(1554631021.099245) can0 0DE#1BF997D00F86
(1554631021.100181) can0 0FE#8028008000320A37
(1554631021.100182) can0 101#000000041FC00A2B
(1554631021.100183) can0 103#000003E800000A11
(1554631021.100183) can0 1F1#FF00000001000519
(1554631021.101384) can0 0FB#000C1DC4000001B1
(1554631021.101385) can0 0F4#181077000000111E
(1554631021.101385) can0 2EF#0F71000000000000
(1554631021.103532) can0 0FA#40200000480800CA
(1554631021.103533) can0 0FC#0000800018000120
(1554631021.103534) can0 7D0#00
(1554631021.105120) can0 0F0#FFC00084BFF80385
(1554631021.105121) can0 0EE#0000000000000BC5
(1554631021.105122) can0 0FF#001DC3B6770001B9
(1554631021.105122) can0 104#0000000600000344
(1554631021.105123) can0 116#0100000000000A85
(1554631021.106236) can0 1EF#8800000000000CE5
(1554631021.106237) can0 1F2#0000000000000563
(1554631021.106238) can0 1F7#000000B800000000
(1554631021.106238) can0 418#000007A2
(1554631021.107385) can0 100#4EE1DC3B80000268
(1554631021.109548) can0 1F0#001FE00000000000
(1554631021.109549) can0 0DE#1BF997D0003D
(1554631021.109549) can0 0FE#8018008000320B16
(1554631021.109550) can0 101#000000041FC00B36
(1554631021.110667) can0 103#000003E800000B0C
(1554631021.110668) can0 1F5#00003F0000
(1554631021.110669) can0 0FB#000C1DC400000296
(1554631021.111673) can0 0F4#1810770000001239
(1554631021.113494) can0 0FA#40200000500800DE
(1554631021.113495) can0 0FC#0000800018000207
(1554631021.113498) can0 1F4#000003C000000108
(1554631021.113499) can0 2EC#0000000000000000
(1554631021.115121) can0 0F0#FFC00084BFF804D6
(1554631021.115122) can0 0EE#0000000000000C96
(1554631021.115123) can0 0FF#001DC3B67700029E
(1554631021.115123) can0 104#0000000600000417
(1554631021.115124) can0 116#0100000000000B98
(1554631021.116236) can0 1FA#197A240000000000
(1554631021.116237) can0 226#0000000000000000
(1554631021.116238) can0 2FA#00094B00
