(1554631059.509418) can0 100#500A01402000021F
(1554631059.509419) can0 384#081DAA8800C00000
(1554631059.509420) can0 0FE#8048008000320B52
(1554631059.509421) can0 101#000003441FC00B1C
(1554631059.510613) can0 103#000003E800000B0C
(1554631059.510613) can0 0DE#1BF997D00120
(1554631059.510614) can0 1F5#00003F0000
(1554631059.510614) can0 1F0#001FE00000000000
(1554631059.513410) can0 0FB#0018A0040100020D
(1554631059.513411) can0 0F4#1A9080400000122F
(1554631059.514592) can0 0FA#8C20000148080093
(1554631059.514592) can0 7D0#00
(1554631059.514593) can0 0EE#0000000000000C96
(1554631059.514593) can0 116#0100000000000B98
(1554631059.515672) can0 0FC#0D40C00218000209
(1554631059.515673) can0 0F0#FFC00084BFF804D6
(1554631059.515674) can0 104#0000000600000417
(1554631059.515674) can0 1F4#000007C0000001BD
(1554631059.515675) can0 1FA#4F6CC40000000000
(1554631059.517462) can0 0FF#0020148079400257
(1554631059.517463) can0 1F8#40FF8000000000FE
(1554631059.519415) can0 2ED#73000000001B2000
(1554631059.519416) can0 100#500A014020000302
(1554631059.519416) can0 0FE#7FB8018000320C52
(1554631059.519417) can0 101#000003441FC00C4F
(1554631059.520632) can0 0DE#1BF997D00207
(1554631059.520632) can0 103#000003E800000C5F
(1554631059.520633) can0 1F1#FF0000000100063E
(1554631059.523463) can0 0FB#0018A00401000310
(1554631059.523464) can0 0F4#1A90804000001332
(1554631059.524592) can0 0FA#8C20000150080087
(1554631059.524593) can0 2EC#0000000000000000
(1554631059.524594) can0 0EE#0000000000000D8B
(1554631059.524594) can0 116#0100000000000CCB
(1554631059.525652) can0 0FC#0D40C00218000314
(1554631059.525653) can0 1EF#8800000000000DF8
(1554631059.525654) can0 0F0#FFC00084BFF805CB
(1554631059.525654) can0 104#000000060000050A
(1554631059.525655) can0 1F2#0000000000000644
(1554631059.526884) can0 1F7#000000BA06260000
(1554631059.526885) can0 2FA#00094B00
(1554631059.526886) can0 412#0F00053240
(1554631059.526886) can0 0FF#002014807940034A
(1554631059.529453) can0 100#500A014020000451
(1554631059.529453) can0 0FE#7FC7FF8000320D63
(1554631059.529454) can0 101#000003441FC00D52
(1554631059.530660) can0 103#000003E800000D42
(1554631059.530661) can0 0DE#1BF997D0031A
(1554631059.530661) can0 1F5#00003F0000
(1554631059.530662) can0 1F0#001FE00000000000
(1554631059.532398) can0 257#001E30518C400000
(1554631059.532399) can0 190#001000000000074D
(1554631059.533461) can0 0FB#0018A01401000466
(1554631059.533462) can0 0F4#1A90804000001461
(1554631059.534493) can0 0FA#8C2000015808008B
(1554631059.534494) can0 7D0#00
(1554631059.534494) can0 0EE#0000000000000EAC
(1554631059.534495) can0 116#0100000000000DD6
(1554631059.535686) can0 0FC#0D38C00218000421
(1554631059.535687) can0 0F0#FFC00084BFF806EC
(1554631059.535687) can0 104#000000060000062D
(1554631059.535688) can0 1F4#000007C00000029A
(1554631059.535688) can0 1FA#4F6CC40000000000
(1554631059.537450) can0 0FF#0020148079400419
(1554631059.537451) can0 1F8#40FF8000000001E3
(1554631059.539450) can0 100#500A01402000054C
(1554631059.539451) can0 416#0031433442553030
(1554631059.539452) can0 0FE#8047FE8000320E7B
(1554631059.540496) can0 0DE#1BF997D00449
(1554631059.540497) can0 101#000003441FC00E75
(1554631059.540497) can0 103#000003E800000E65
(1554631059.540498) can0 1F1#FF00000001000723
(1554631059.540498) can0 5A6#8004E2106C000000
(1554631059.543457) can0 0FB#0018A0140100057B
(1554631059.543458) can0 0F4#1A9080400000157C
(1554631059.544592) can0 0FA#8C200001600800AF
(1554631059.544593) can0 0EE#0000000000000FB1
(1554631059.544593) can0 116#0100000000000EF1
(1554631059.545673) can0 0FC#0D38C0021800053C
(1554631059.545674) can0 0F0#FFC00084BFF807F1
(1554631059.545674) can0 104#0000000600000730
(1554631059.545675) can0 1EF#8800000000000EDF
(1554631059.545676) can0 1F2#0000000000000759
(1554631059.546927) can0 1F7#000000BA06240000
(1554631059.546927) can0 2FA#000A6C00
(1554631059.546928) can0 0FF#0020148079400504
(1554631059.549713) can0 100#500A01402000066B
(1554631059.549713) can0 0FE#7FF7FE8010320F17
(1554631059.549714) can0 101#000003441FC00F68
(1554631059.550860) can0 0DE#1BF997D00554
(1554631059.550860) can0 103#000003E800000F78
(1554631059.550861) can0 1F5#00003F0000
(1554631059.550861) can0 1F0#001FE00000000000
(1554631059.553411) can0 0FB#0018A0140100065C
(1554631059.553412) can0 0F4#1A9080400000165B
(1554631059.553412) can0 2EF#0F15000000000000
(1554631059.554491) can0 0FA#8C200001680800A3
(1554631059.554492) can0 7D0#00
(1554631059.554493) can0 0EE#000000000000000A
(1554631059.554494) can0 116#0100000000000FEC
(1554631059.555914) can0 0FC#0D38C0021800061B
(1554631059.555915) can0 0F0#FFC00084BFF8084A
(1554631059.555915) can0 104#000000060000088B
(1554631059.555915) can0 1F4#000007C000000387
(1554631059.555915) can0 1FA#4F6CC40000000000
(1554631059.557612) can0 0FF#0020148079400623
(1554631059.557612) can0 1F8#40FF8000000002C4
(1554631059.559712) can0 259#0000009030000000
(1554631059.559713) can0 100#500A014020000776
(1554631059.559713) can0 417#C30008E000000000
(1554631059.559713) can0 419#8A00000C00000000
(1554631059.560721) can0 0FE#7FE80080003200E0
(1554631059.560721) can0 0DE#1BF997D00673
(1554631059.560721) can0 101#000003441FC000D3
(1554631059.560722) can0 103#000003E8000000C3
(1554631059.560722) can0 1F1#FF00000001000898
(1554631059.564067) can0 0FB#0018A01401000741
(1554631059.564067) can0 0F4#1A90804000001746
(1554631059.564615) can0 0FA#8C200001700800B7
(1554631059.564615) can0 0EE#0000000000000117
(1554631059.564616) can0 116#0100000000000057
(1554631059.566110) can0 0FC#0D44C00218000765
(1554631059.566111) can0 0F0#FFC00084BFF80957
(1554631059.566112) can0 104#0000000600000996
(1554631059.566113) can0 1EF#8800000000000FC2
(1554631059.566113) can0 1F2#00000000000008E2
(1554631059.566898) can0 1F7#000000BA06220000
(1554631059.566899) can0 2FA#000B7100
(1554631059.566899) can0 0FF#0020148078C00778
(1554631059.569727) can0 2ED#73000000001B2000
(1554631059.569727) can0 100#500A0140200008CD
(1554631059.569728) can0 0FE#8048028000320154
(1554631059.569728) can0 101#000003441FC001CE
(1554631059.570886) can0 0DE#1BF997D0076E
(1554631059.570886) can0 103#000003E8000001DE
(1554631059.570886) can0 1F5#00003F0000
(1554631059.570887) can0 1F0#001FE00000000000
(1554631059.573430) can0 0FB#001920140100089F
(1554631059.573430) can0 0F4#1A908040000018FD
(1554631059.574506) can0 0FA#8C200001780800BB
(1554631059.574507) can0 2EC#0000000000000000
(1554631059.574507) can0 7D0#00
(1554631059.574507) can0 0EE#0000000000000230
(1554631059.574507) can0 116#010000000000014A
(1554631059.575719) can0 0FC#0D44C002180008DE
(1554631059.575720) can0 0F0#FFC00084BFF80A70
(1554631059.575722) can0 104#0000000600000AB1
(1554631059.575723) can0 1F4#000007C0000004D4
(1554631059.575724) can0 1FA#4F6CC40000000000
(1554631059.577786) can0 736#0E323331CD000000
(1554631059.577787) can0 0FF#0020147E78C008F8
(1554631059.577787) can0 1F8#40FF8000000003D9
(1554631059.579853) can0 100#500A0140200009D0
(1554631059.579854) can0 0FE#80180080003202E3
(1554631059.579854) can0 101#000003441FC002E9
(1554631059.580673) can0 0DE#1BF997D008D5
(1554631059.580674) can0 103#000003E8000002F9
(1554631059.580674) can0 1F1#FF00000001000985
(1554631059.583523) can0 190#00100000000008F6
(1554631059.583524) can0 0FB#0019201401000982
(1554631059.583524) can0 0F4#1A908040000019E0
(1554631059.584625) can0 0FA#8C200001000800FF
(1554631059.584625) can0 0EE#000000000000032D
(1554631059.584626) can0 116#010000000000026D
(1554631059.586049) can0 0FC#0D44C002180009C3
(1554631059.586049) can0 0F0#FFC00084BFF80B6D
(1554631059.586050) can0 104#0000000600000BAC
(1554631059.586050) can0 1EF#8800000000000079
(1554631059.586050) can0 1F2#00000000000009FF
(1554631059.587236) can0 1F7#000000BA06200000
(1554631059.587237) can0 2FA#000C2200
(1554631059.587237) can0 0FF#0020147E78C009E5
(1554631059.589928) can0 100#500A014020000AF7
(1554631059.589929) can0 41A#C04700A8AF3660
(1554631059.589929) can0 0FE#7FB7FF80003203A9
(1554631059.589929) can0 101#000003441FC003F4
(1554631059.590762) can0 0DE#1BF997D009C8
(1554631059.590762) can0 103#000003E8000003E4
(1554631059.590763) can0 1F5#00003F0000
(1554631059.590763) can0 1F0#001FE00000000000
(1554631059.593905) can0 0FB#0019201401000AA5
(1554631059.593906) can0 0F4#1A90804000001AC7
(1554631059.594756) can0 0FA#8C200001080800F3
(1554631059.594757) can0 7D0#00
(1554631059.594757) can0 0EE#000000000000047E
(1554631059.594758) can0 116#0100000000000370
(1554631059.595986) can0 0FC#0D44C00218000AE4
(1554631059.595987) can0 0F0#FFC00084BFF80C3E
(1554631059.595988) can0 104#0000000600000CFF
(1554631059.595988) can0 15C#3200010000000478
(1554631059.595989) can0 1F4#000007C0000005C9
(1554631059.597212) can0 1FA#4F6CC40000000000
(1554631059.597213) can0 41B#43A0000000E80000
(1554631059.597214) can0 0FF#0020147E78C00AC2
(1554631059.598769) can0 1F8#40FF80000000048A
(1554631059.598770) can0 256#0800007FC4420000
(1554631059.599642) can0 100#500A014020000BEA
(1554631059.599643) can0 2EE#81A00000
(1554631059.599644) can0 0FE#7FD7FF8000320482
(1554631059.600654) can0 101#000003441FC004A7
(1554631059.600656) can0 0DE#1BF997D00AEF
(1554631059.600656) can0 103#000003E8000004B7
(1554631059.600657) can0 1F1#FF00000001000AA2
(1554631059.600657) can0 41E#FFFDFFFEFF0000C0
(1554631059.601976) can0 420#FF6FF6FF6FF60000
(1554631059.603769) can0 0FB#0019200401000B9D
(1554631059.603770) can0 0F4#1A90804000001BDA
(1554631059.603771) can0 2EF#0F15000000000000
(1554631059.604786) can0 0FA#8C200001100800E7
(1554631059.604788) can0 0EE#0000000000000563
(1554631059.604788) can0 116#0100000000000423
(1554631059.605679) can0 0FC#0D44C00218000BF9
(1554631059.605680) can0 0F0#FFC00084BFF80D23
(1554631059.605680) can0 104#0000000600000DE2
(1554631059.605681) can0 1EF#8800000000000164
(1554631059.605682) can0 1F2#0000000000000AD8
(1554631059.606901) can0 1F7#000000BA06200000
(1554631059.606902) can0 2FA#000D3F00
(1554631059.606902) can0 418#00000819
(1554631059.606903) can0 0FF#0020147E78C00BDF
(1554631059.609885) can0 100#500A014020000CB9
(1554631059.609886) can0 0FE#80580080003205E0
(1554631059.609887) can0 101#000003441FC005BA
(1554631059.610764) can0 0DE#1BF997D00BF2
(1554631059.610765) can0 103#000003E8000005AA
(1554631059.610766) can0 1F5#00003F0000
(1554631059.610766) can0 1F0#001FE00000000000
(1554631059.613874) can0 0FB#0019200401000CCE
(1554631059.613875) can0 0F4#1A90804000001C89
(1554631059.614770) can0 0FA#8C200001180800EB
(1554631059.614771) can0 7D0#00
(1554631059.614772) can0 0EE#0000000000000644
(1554631059.614772) can0 116#010000000000053E
(1554631059.615943) can0 0FC#0D44C00218000CAA
(1554631059.615944) can0 0F0#FFC00084BFF80E04
(1554631059.615944) can0 104#0000000600000EC5
(1554631059.615945) can0 1F4#000007C0000006EE
(1554631059.615946) can0 1FA#4F6CC40000000000
(1554631059.617193) can0 73C#009FC00000000104
(1554631059.617194) can0 0FF#0020147E78C00C8C
(1554631059.618692) can0 1F8#40FF800000000597
(1554631059.619661) can0 2ED#73000000001B2000
(1554631059.619662) can0 100#500A014020000DA4
(1554631059.619662) can0 0FE#8027FF8000320681
(1554631059.619663) can0 101#000003441FC0069D
(1554631059.620958) can0 0DE#1BF997D00CA1
(1554631059.620959) can0 103#000003E80000068D
(1554631059.620960) can0 1F1#FF00000001000BBF
(1554631059.623892) can0 0FB#0019200401000DD3
(1554631059.623893) can0 0F4#1A90804000001D94
(1554631059.624771) can0 0FA#8C200001200800CF
(1554631059.624772) can0 2EC#0000000000000000
(1554631059.624773) can0 0EE#0000000000000759
(1554631059.624773) can0 116#0100000000000619
(1554631059.625983) can0 0FC#0D44C00218000DB7
(1554631059.625984) can0 0F0#FFC00084BFF80F19
(1554631059.625985) can0 104#0000000600000FD8
(1554631059.625985) can0 1EF#8800000000000243
(1554631059.625986) can0 1F2#0000000000000BC5
(1554631059.627183) can0 1F7#000000BA061E0000
(1554631059.627184) can0 2FA#000E1800
(1554631059.627184) can0 412#0F00053240
(1554631059.627185) can0 0FF#0020147E78C00D91
(1554631059.629895) can0 100#500A014020000E83
(1554631059.629896) can0 0FE#7FB80080003207F7
(1554631059.629896) can0 101#000003441FC00780
(1554631059.630756) can0 0DE#1BF997D00DBC
(1554631059.630757) can0 103#000003E800000790
(1554631059.630758) can0 1F5#00003F0000
(1554631059.630761) can0 5E0#0043890000000389
(1554631059.630761) can0 1F0#001FE00000000000
(1554631059.632643) can0 15A#80000DB0
(1554631059.632644) can0 257#001E30518C400000
(1554631059.632644) can0 190#00100000000009EB
(1554631059.633659) can0 0FB#0019200401000EF4
(1554631059.633660) can0 0F4#1A90804000001EB3
(1554631059.634963) can0 0FA#8C200001280800C3
(1554631059.634964) can0 7D0#00
(1554631059.634965) can0 0EE#00000000000008E2
(1554631059.634966) can0 116#0100000000000704
(1554631059.636006) can0 0FC#0D3CC00218000EF6
(1554631059.636007) can0 0F0#FFC00084BFF800A2
(1554631059.636007) can0 104#0000000600000063
(1554631059.636008) can0 1F4#000007C0000007F3
(1554631059.636008) can0 1FA#4F6CC40000000000
(1554631059.637468) can0 0FF#0020147E78C00EB6
(1554631059.638851) can0 1F8#40FF8000000006B0
(1554631059.638852) can0 100#500A014020000F9E
(1554631059.640454) can0 416#0130304850453836
(1554631059.640455) can0 0FE#7FF800800032081C
(1554631059.640456) can0 0DE#1BF997D00E9B
(1554631059.640456) can0 101#000003441FC0083B
(1554631059.640457) can0 103#000003E80000082B
(1554631059.641538) can0 1F1#FF00000001000CEC
(1554631059.641539) can0 545#6817460780120000
(1554631059.643466) can0 0FB#0019200401000FE9
(1554631059.643467) can0 0F4#1A90804000001FAE
(1554631059.645006) can0 0FA#8C200001300800D7
(1554631059.645007) can0 0EE#00000000000009FF
(1554631059.645008) can0 116#01000000000008BF
(1554631059.645943) can0 0FC#0D3CC00218000FEB
(1554631059.645944) can0 0F0#FFC00084BFF801BF
(1554631059.645944) can0 104#000000060000017E
(1554631059.645945) can0 1EF#880000000000035E
(1554631059.645946) can0 1F2#0000000000000C96
(1554631059.646975) can0 1F7#000000BA061C0000
(1554631059.646975) can0 2FA#000F0500
(1554631059.646976) can0 0FF#0020147E78C00FAB
(1554631059.649470) can0 100#500A014020000025
(1554631059.649471) can0 0FE#801800800032092C
(1554631059.649472) can0 101#000003441FC00926
(1554631059.650851) can0 0DE#1BF997D00F86
(1554631059.650852) can0 103#000003E800000936
(1554631059.650852) can0 1F5#00003F0000
(1554631059.650853) can0 1F0#001FE00000000000
(1554631059.653903) can0 0FB#0019200401000052
(1554631059.653904) can0 0F4#1A90804000001015
(1554631059.653904) can0 2EF#0F15000000000000
(1554631059.654759) can0 0FA#8C200001380800DB
(1554631059.654760) can0 7D0#00
(1554631059.654760) can0 0EE#0000000000000AD8
(1554631059.654761) can0 116#01000000000009A2
(1554631059.655988) can0 0FC#0D3CC00218000050
(1554631059.655990) can0 0F0#FFC00084BFF80298
(1554631059.655990) can0 104#0000000600000259
(1554631059.655991) can0 1F4#000007C000000848
(1554631059.655991) can0 1FA#4F6CC40000000000
(1554631059.657493) can0 0FF#0020147E78C00010
(1554631059.657494) can0 1F8#40FF8000000007AD
(1554631059.659560) can0 259#0000009030000000
(1554631059.659561) can0 100#500A014020000138
(1554631059.659562) can0 417#C30008E000000000
(1554631059.660431) can0 0FE#7FE7FE8000320A72
(1554631059.660432) can0 101#000003441FC00A01
(1554631059.660433) can0 0DE#1BF997D0003D
(1554631059.660433) can0 103#000003E800000A11
(1554631059.660434) can0 1F1#FF00000001000DF1
(1554631059.661696) can0 419#8B00000C00000000
(1554631059.663849) can0 0FB#001920040100014F
(1554631059.663850) can0 0F4#1A90804000001108
(1554631059.664933) can0 0FA#8C2000014008009F
(1554631059.664934) can0 0EE#0000000000000BC5
(1554631059.664938) can0 116#0100000000000A85
(1554631059.665920) can0 0FC#0D3CC0021800014D
(1554631059.665921) can0 0F0#FFC00084BFF80385
(1554631059.665922) can0 104#0000000600000344
(1554631059.665922) can0 1EF#880000000000040D
(1554631059.665923) can0 1F2#0000000000000D8B
(1554631059.667195) can0 1F7#000000BA06200000
(1554631059.667196) can0 2FA#0000BE00
(1554631059.667197) can0 0FF#0020147E78C0010D
(1554631059.669903) can0 2ED#73000000001B2000
(1554631059.669904) can0 100#500A01402000021F
(1554631059.669904) can0 73E#02008400
(1554631059.669905) can0 0FE#8017FC8000320B82
(1554631059.669905) can0 101#000003441FC00B1C
(1554631059.670932) can0 0DE#1BF997D00120
(1554631059.670933) can0 103#000003E800000B0C
(1554631059.670934) can0 1F5#00003F0000
(1554631059.670935) can0 1F0#001FE00000000000
(1554631059.673899) can0 0FB#001920140100024D
(1554631059.673900) can0 0F4#1A9080400000122F
(1554631059.674797) can0 0FA#8C20000148080093
(1554631059.674798) can0 2EC#0000000000000000
(1554631059.674798) can0 7D0#00
(1554631059.674799) can0 0EE#0000000000000C96
(1554631059.674800) can0 0FC#0D4CC00218000206
(1554631059.676028) can0 116#0100000000000B98
(1554631059.676029) can0 0F0#FFC00084BFF804D6
(1554631059.676029) can0 104#0000000600000417
(1554631059.676030) can0 158#000001EC
(1554631059.676031) can0 1F4#000007C000000955
(1554631059.676956) can0 1FA#4F6CC40000000000
(1554631059.676957) can0 736#0E333331CD000000
(1554631059.676958) can0 0FF#0020147E79000286
(1554631059.678811) can0 1F8#40FF800000000816
(1554631059.678812) can0 100#500A014020000302
(1554631059.680613) can0 0FE#8037FD8000320C93
(1554631059.680614) can0 0DE#1BF997D00207
(1554631059.680615) can0 101#000003441FC00C4F
(1554631059.680615) can0 103#000003E800000C5F
(1554631059.680616) can0 1F1#FF00000001000ED6
(1554631059.683456) can0 190#0010000000000ACC
(1554631059.683457) can0 0FB#0019201401000350
(1554631059.683458) can0 0F4#1A90804000001332
(1554631059.685006) can0 0FA#8C20000150080087
(1554631059.685008) can0 0EE#0000000000000D8B
(1554631059.685008) can0 116#0100000000000CCB
(1554631059.685913) can0 0FC#0D4CC0021800031B
(1554631059.685914) can0 0F0#FFC00084BFF805CB
(1554631059.685915) can0 104#000000060000050A
(1554631059.685916) can0 1EF#8800000000000510
(1554631059.685916) can0 1F2#0000000000000EAC
(1554631059.687226) can0 1F7#000000BA06200000
(1554631059.687227) can0 2FA#0001A300
(1554631059.687228) can0 0FF#0020147E7900039B
(1554631059.689897) can0 100#500A014020000451
(1554631059.689898) can0 41A#C04700A8AF1660
(1554631059.689898) can0 0FE#7FE7FF8000320D4B
(1554631059.689899) can0 101#000003441FC00D52
(1554631059.690906) can0 0DE#1BF997D0031A
(1554631059.690907) can0 103#000003E800000D42
(1554631059.690907) can0 1F5#00003F0000
(1554631059.690908) can0 1F0#001FE00000000000
(1554631059.693897) can0 0FB#0019201401000403
(1554631059.693898) can0 0F4#1A90804000001461
(1554631059.694934) can0 0FA#8C2000015808008B
(1554631059.694935) can0 7D0#00
(1554631059.694936) can0 0EE#0000000000000EAC
(1554631059.694936) can0 116#0100000000000DD6
(1554631059.695953) can0 0FC#0D4CC00218000448
(1554631059.695954) can0 0F0#FFC00084BFF806EC
(1554631059.695954) can0 104#000000060000062D
(1554631059.695955) can0 15C#3200010000000565
(1554631059.695956) can0 1F4#000007C000000A72
(1554631059.697196) can0 1FA#4F6CC40000000000
(1554631059.697197) can0 41B#43A0000000E80000
(1554631059.697197) can0 0FF#0020147E790004C8
(1554631059.698713) can0 1F8#40FF80000000090B
(1554631059.698714) can0 256#0800007FC4420000
(1554631059.699524) can0 100#500A01402000054C
(1554631059.699524) can0 2EE#81A00000
(1554631059.699525) can0 0FE#7FB8008000320E02
(1554631059.700516) can0 0DE#1BF997D00449
(1554631059.700517) can0 101#000003441FC00E75
(1554631059.700518) can0 103#000003E800000E65
(1554631059.700518) can0 1F1#FF00000001000FCB
(1554631059.700519) can0 41E#FFFDFFFEFF0000C0
(1554631059.701748) can0 5AB#0000000000000000
(1554631059.701749) can0 420#FF6FF6FF6FF60000
(1554631059.701749) can0 5B0#0000000000000000
(1554631059.701750) can0 744#000003003FF000FF
(1554631059.701750) can0 7CA#8FB6
(1554631059.703459) can0 0FB#001920140100051E
(1554631059.703460) can0 0F4#1A9080400000157C
(1554631059.703460) can0 2EF#0F15000000000000
(1554631059.704644) can0 0FA#8C200001600800AF
(1554631059.704645) can0 0EE#0000000000000FB1
(1554631059.704646) can0 116#0100000000000EF1
(1554631059.705719) can0 0FC#0D44C0021800055F
(1554631059.705719) can0 0F0#FFC00084BFF807F1
(1554631059.705720) can0 104#0000000600000730
(1554631059.705721) can0 1EF#8800000000000637
(1554631059.705721) can0 1F2#0000000000000FB1
(1554631059.706945) can0 1F7#000000BA061E0000
(1554631059.706946) can0 2FA#00028400
(1554631059.706947) can0 418#00000904
(1554631059.706947) can0 0FF#0020147E7940053F
(1554631059.709503) can0 100#500A01402000066B
(1554631059.709504) can0 0FE#8008018000320F1C
(1554631059.709505) can0 101#000003441FC00F68
(1554631059.710644) can0 0DE#1BF997D00554
(1554631059.710645) can0 103#000003E800000F78
(1554631059.710646) can0 1F5#00003F0000
(1554631059.710646) can0 1F0#001FE00000000000
(1554631059.713500) can0 0FB#0019201401000639
(1554631059.713501) can0 0F4#1A9080400000165B
(1554631059.714697) can0 0FA#8C200001680800A3
(1554631059.714698) can0 7D0#00
(1554631059.714699) can0 0EE#000000000000000A
(1554631059.714699) can0 116#0100000000000FEC
(1554631059.715720) can0 0FC#0D44C00218000678
(1554631059.715721) can0 0F0#FFC00084BFF8084A
(1554631059.715721) can0 104#000000060000088B
(1554631059.715722) can0 1F4#000007C000000B6F
(1554631059.715722) can0 1FA#4F6CC40000000000
(1554631059.717499) can0 0FF#0020147E79400618
(1554631059.717500) can0 5AE#000000001301C400
(1554631059.718532) can0 1F8#40FF800000000A2C
(1554631059.718533) can0 2ED#73000000001B2000
(1554631059.719747) can0 100#500A014020000776
(1554631059.719747) can0 0FE#80380080003200F1
(1554631059.719748) can0 0DE#1BF997D00673
(1554631059.719749) can0 101#000003441FC000D3
(1554631059.720900) can0 103#000003E8000000C3
(1554631059.720901) can0 1F1#FF00000001000070
(1554631059.723496) can0 0FB#0019201401000724
(1554631059.723497) can0 0F4#1A90804000001746
(1554631059.724706) can0 0FA#8C200001700800B7
(1554631059.724707) can0 2EC#0000000000000000
(1554631059.724707) can0 0EE#0000000000000117
(1554631059.724708) can0 116#0100000000000057
(1554631059.725721) can0 0FC#0D44C00218000765
(1554631059.725721) can0 0F0#FFC00084BFF80957
(1554631059.725722) can0 104#0000000600000996
(1554631059.725723) can0 1EF#880000000000072A
(1554631059.725723) can0 1F2#000000000000000A
(1554631059.726919) can0 1F7#000000BA061E0000
(1554631059.726922) can0 2FA#00039900
(1554631059.726923) can0 412#0F00053240
(1554631059.726923) can0 0FF#0020147E79400705
(1554631059.729500) can0 100#500A0140200008CD
(1554631059.729501) can0 0FE#7FD7FE8000320181
(1554631059.729501) can0 101#000003441FC001CE
(1554631059.730640) can0 0DE#1BF997D0076E
(1554631059.730641) can0 103#000003E8000001DE
(1554631059.730642) can0 1F5#00003F0000
(1554631059.730642) can0 1F0#001FE00000000000
(1554631059.732371) can0 257#001E30518C400000
(1554631059.732372) can0 190#0010000000000BD1
(1554631059.733498) can0 0FB#001920140100089F
(1554631059.733499) can0 0F4#1A908040000018FD
(1554631059.734641) can0 0FA#8C200001780800BB
(1554631059.734642) can0 7D0#00
(1554631059.734642) can0 0EE#0000000000000230
(1554631059.734643) can0 116#010000000000014A
(1554631059.735745) can0 0FC#0D44C002180008DE
(1554631059.735746) can0 0F0#FFC00084BFF80A70
(1554631059.735747) can0 104#0000000600000AB1
(1554631059.735747) can0 1F4#000007C000000C3C
(1554631059.735748) can0 1FA#4F6CC40000000000
(1554631059.737500) can0 0FF#0020147E794008BE
(1554631059.737501) can0 1F8#40FF800000000B31
(1554631059.739502) can0 100#500A0140200009D0
(1554631059.739503) can0 416#0235353400000000
(1554631059.739503) can0 0FE#7FE80180003202B0
(1554631059.740645) can0 0DE#1BF997D008D5
(1554631059.740646) can0 101#000003441FC002E9
(1554631059.740647) can0 103#000003E8000002F9
(1554631059.740647) can0 1F1#FF0000000100016D
(1554631059.743500) can0 0FB#0019201401000982
(1554631059.743501) can0 0F4#1A908040000019E0
(1554631059.744702) can0 0FA#8C200001000800FF
(1554631059.744703) can0 0EE#000000000000032D
(1554631059.744703) can0 116#010000000000026D
(1554631059.745723) can0 0FC#0D4CC002180009C9
(1554631059.745724) can0 0F0#FFC00084BFF80B6D
(1554631059.745724) can0 104#0000000600000BAC
(1554631059.745725) can0 1EF#8800000000000891
(1554631059.745725) can0 1F2#0000000000000117
(1554631059.746949) can0 1F7#000000BA061E0000
(1554631059.746949) can0 2FA#0004CA00
(1554631059.746950) can0 0FF#0020147E79000949
(1554631059.749527) can0 100#500A014020000AF7
(1554631059.749527) can0 0FE#8048038000320304
(1554631059.749528) can0 0DE#1BF997D009C8
(1554631059.750644) can0 101#000003441FC003F4
(1554631059.750645) can0 103#000003E8000003E4
(1554631059.750645) can0 1F5#00003F0000
(1554631059.750646) can0 1F0#001FE00000000000
(1554631059.753526) can0 0FB#0019201401000AA5
(1554631059.753526) can0 0F4#1A90804000001AC7
(1554631059.753527) can0 2EF#0F15000000000000
(1554631059.754642) can0 0FA#8C200001080800F3
(1554631059.754643) can0 7D0#00
(1554631059.754644) can0 0EE#000000000000047E
(1554631059.754644) can0 116#0100000000000370
(1554631059.755723) can0 0FC#0D4CC00218000AEE
(1554631059.755724) can0 0F0#FFC00084BFF80C3E
(1554631059.755725) can0 104#0000000600000CFF
(1554631059.755725) can0 1F4#000007C000000D21
(1554631059.755726) can0 1FA#4F6CC40000000000
(1554631059.757505) can0 0FF#0020147E79000A6E
(1554631059.757506) can0 1F8#40FF800000000C62
(1554631059.759176) can0 259#0000009030000000
(1554631059.759177) can0 100#500A014020000BEA
(1554631059.759177) can0 417#C30008E000000000
(1554631059.760224) can0 0FE#80180080003204AD
(1554631059.760224) can0 0DE#1BF997D00AEF
(1554631059.760225) can0 101#000003441FC004A7
(1554631059.760225) can0 103#000003E8000004B7
(1554631059.760228) can0 1F1#FF0000000100024A
(1554631059.761401) can0 384#081DAA8800C00000
(1554631059.761402) can0 419#8A00000C00000000
(1554631059.763504) can0 0FB#0019201401000BB8
(1554631059.763505) can0 0F4#1A90804000001BDA
(1554631059.764665) can0 0FA#8C200001100800E7
(1554631059.764666) can0 0EE#0000000000000563
(1554631059.764667) can0 116#0100000000000423
(1554631059.765731) can0 0FC#0D4CC00218000BF3
(1554631059.765732) can0 1EF#880000000000098C
(1554631059.765733) can0 0F0#FFC00084BFF80D23
(1554631059.765733) can0 104#0000000600000DE2
(1554631059.765734) can0 1F2#0000000000000230
(1554631059.766950) can0 1F7#000000BA06200000
(1554631059.766950) can0 2FA#0005D700
(1554631059.766951) can0 0FF#0020147E79000B73
(1554631059.769505) can0 2ED#73000000001B2000
(1554631059.769506) can0 100#500A014020000CB9
(1554631059.769506) can0 0FE#7FD7FE80003205F5
(1554631059.769507) can0 101#000003441FC005BA
(1554631059.770607) can0 0DE#1BF997D00BF2
(1554631059.770607) can0 103#000003E8000005AA
(1554631059.770608) can0 1F5#00003F0000
(1554631059.770608) can0 1F0#001FE00000000000
(1554631059.773503) can0 0FB#0019201401000CEB
(1554631059.773504) can0 0F4#1A90804000001C89
(1554631059.774643) can0 0FA#8C200001180800EB
(1554631059.774643) can0 2EC#0000000000000000
(1554631059.774644) can0 7D0#00
(1554631059.774644) can0 0EE#0000000000000644
(1554631059.774645) can0 116#010000000000053E
(1554631059.775724) can0 0FC#0D4CC00218000CA0
(1554631059.775724) can0 0F0#FFC00084BFF80E04
(1554631059.775725) can0 104#0000000600000EC5
(1554631059.775725) can0 1F4#000007C000000E06
(1554631059.775726) can0 1FA#4F6CC40000000000
(1554631059.777527) can0 736#0E323332CD000000
(1554631059.777528) can0 0FF#0020147E78C00C8C
(1554631059.777529) can0 1F8#40FF800000000D7F
(1554631059.779500) can0 100#500A014020000DA4
(1554631059.779501) can0 0FE#8007FE80003206C3
(1554631059.779501) can0 0DE#1BF997D00CA1
(1554631059.780678) can0 101#000003441FC0069D
(1554631059.780679) can0 103#000003E80000068D
(1554631059.780679) can0 1F1#FF00000001000357
(1554631059.783003) can0 190#0010000000000C82
(1554631059.783003) can0 0FB#0019200401000DD3
(1554631059.783004) can0 0F4#1A90804000001D94
(1554631059.784703) can0 0FA#8C200001200800CF
(1554631059.784704) can0 0EE#0000000000000759
(1554631059.784704) can0 116#0100000000000619
(1554631059.785725) can0 0FC#0D44C00218000DB7
(1554631059.785725) can0 0F0#FFC00084BFF80F19
(1554631059.785726) can0 104#0000000600000FD8
(1554631059.785726) can0 1EF#8800000000000AAB
(1554631059.785727) can0 1F2#000000000000032D
(1554631059.786949) can0 1F7#000000BA061E0000
(1554631059.786950) can0 2FA#0006F000
(1554631059.786950) can0 0FF#0020147E78C00D91
(1554631059.789508) can0 100#500A014020000E83
(1554631059.789509) can0 41A#C0C700A8AEC660
(1554631059.789509) can0 0FE#801800800032078A
(1554631059.789510) can0 0DE#1BF997D00DBC
(1554631059.790700) can0 101#000003441FC00780
(1554631059.790701) can0 103#000003E800000790
(1554631059.790702) can0 1F5#00003F0000
(1554631059.790702) can0 1F0#001FE00000000000
(1554631059.793505) can0 0FB#0019200401000EF4
(1554631059.793506) can0 0F4#1A90804000001EB3
(1554631059.794725) can0 0FA#8C200001280800C3
(1554631059.794726) can0 7D0#00
(1554631059.794726) can0 0EE#00000000000008E2
(1554631059.794727) can0 116#0100000000000704
(1554631059.795724) can0 0FC#0D44C00218000E90
(1554631059.795725) can0 0F0#FFC00084BFF800A2
(1554631059.795725) can0 104#0000000600000063
(1554631059.795726) can0 15C#3200010000000642
(1554631059.795726) can0 1F4#000007C000000F1B
(1554631059.796951) can0 1FA#4F6CC40000000000
(1554631059.796952) can0 41B#43A0000000E80000
(1554631059.796952) can0 0FF#0020147E78C00EB6
(1554631059.798349) can0 1F8#40FF800000000E58
(1554631059.798350) can0 256#0800007FC4420000
(1554631059.799502) can0 100#500A014020000F9E
(1554631059.799503) can0 2EE#81A00000
(1554631059.799503) can0 0FE#7FD8008000320834
(1554631059.800536) can0 0DE#1BF997D00E9B
(1554631059.800536) can0 101#000003441FC0083B
(1554631059.800537) can0 103#000003E80000082B
(1554631059.800537) can0 1F1#FF00000001000404
(1554631059.800538) can0 41E#FFFDFFFEFF0000C0
(1554631059.801776) can0 420#FF6FF6FF6FF60000
(1554631059.803526) can0 0FB#0019200401000FE9
(1554631059.803527) can0 0F4#1A90804000001FAE
(1554631059.803528) can0 2EF#0F15000000000000
(1554631059.804647) can0 0FA#8C200001300800D7
(1554631059.804648) can0 0EE#00000000000009FF
(1554631059.804648) can0 116#01000000000008BF
(1554631059.805726) can0 0FC#0D44C00218000F8D
(1554631059.805727) can0 0F0#FFC00084BFF801BF
(1554631059.805728) can0 104#000000060000017E
(1554631059.805728) can0 1EF#8800000000000BB6
(1554631059.805729) can0 1F2#000000000000047E
(1554631059.806951) can0 1F7#000000BA061E0000
(1554631059.806951) can0 2FA#0007ED00
(1554631059.806952) can0 418#00000A23
(1554631059.806952) can0 0FF#0020147E78C00FAB
(1554631059.809529) can0 100#500A014020000025
(1554631059.809529) can0 0FE#7FD7FF8000320903
(1554631059.809530) can0 0DE#1BF897D00F1B
(1554631059.810644) can0 101#000003441FC00926
(1554631059.810645) can0 103#000003E800000936
(1554631059.810645) can0 1F5#00003F0000
(1554631059.810646) can0 1F0#001FE00000000000
(1554631059.813527) can0 0FB#0019200401000052
(1554631059.813528) can0 0F4#1A90804000001015
(1554631059.814725) can0 0FA#8C200001380800DB
(1554631059.814726) can0 7D0#00
(1554631059.814727) can0 0EE#0000000000000AD8
(1554631059.814727) can0 116#01000000000009A2
(1554631059.814727) can0 0FC#0D48C00218000039
(1554631059.815950) can0 0F0#FFC00084BFF80298
(1554631059.815950) can0 104#0000000600000259
(1554631059.815951) can0 1F4#000007C0000000A0
(1554631059.815951) can0 1FA#4F6CC40000000000
(1554631059.817505) can0 0FF#0020147E78C00010
(1554631059.817506) can0 1F8#40FF800000000F45
(1554631059.819501) can0 2ED#73000000001C5000
(1554631059.819501) can0 100#500A014020000138
(1554631059.819502) can0 0FE#8017FF8000320A21
(1554631059.819502) can0 0DE#1BF997D0003D
(1554631059.820680) can0 101#000003441FC00A01
(1554631059.820680) can0 103#000003E800000A11
(1554631059.820681) can0 1F1#FF00000001000519
(1554631059.823707) can0 0FB#001920040100014F
(1554631059.823708) can0 0F4#1A90804000001108
(1554631059.824806) can0 0FA#8C2000014008009F
(1554631059.824807) can0 2EC#0000000000000000
(1554631059.824807) can0 0EE#0000000000000BC5
(1554631059.824808) can0 116#0100000000000A85
(1554631059.825951) can0 0FC#0D48C00218000124
(1554631059.825952) can0 1EF#8800000000000CE5
(1554631059.825952) can0 0F0#FFC00084BFF80385
(1554631059.825953) can0 104#0000000600000344
(1554631059.825953) can0 1F2#0000000000000563
(1554631059.827194) can0 1F7#000000BA06220000
(1554631059.827197) can0 2FA#00085600
(1554631059.827198) can0 412#0F00053240
(1554631059.827198) can0 0FF#0020147E78C0010D
(1554631059.829898) can0 100#500A01402000021F
(1554631059.829899) can0 0FE#7FF7FE8000320B7B
(1554631059.829899) can0 0DE#1BF997D00120
(1554631059.830773) can0 101#000003441FC00B1C
(1554631059.830773) can0 103#000003E800000B0C
(1554631059.830774) can0 1F5#00003F0000
(1554631059.830774) can0 1F0#001FE00000000000
(1554631059.832825) can0 257#001E30518C400000
(1554631059.832826) can0 190#0010000000000D9F
(1554631059.833699) can0 0FB#0019200401000268
(1554631059.833700) can0 0F4#1A9080400000122F
(1554631059.835006) can0 0FA#8C20000148080093
(1554631059.835007) can0 7D0#00
(1554631059.835008) can0 0EE#0000000000000C96
(1554631059.835009) can0 116#0100000000000B98
(1554631059.835972) can0 0FC#0D48C00218000203
(1554631059.835973) can0 0F0#FFC00084BFF804D6
(1554631059.835974) can0 104#0000000600000417
(1554631059.835974) can0 1F4#000007C0000001BD
(1554631059.835975) can0 1FA#4F6CC40000000000
(1554631059.837799) can0 0FF#0020147E78C0022A
(1554631059.837800) can0 1F8#40FF8000000000FE
(1554631059.838790) can0 41C#0008000000000800
(1554631059.838791) can0 100#500A014020000302
(1554631059.840537) can0 416#0031433442553030
(1554631059.840538) can0 0FE#7FD7FF8000320C6A
(1554631059.840539) can0 0DE#1BF997D00207
(1554631059.840539) can0 101#000003441FC00C4F
(1554631059.840540) can0 103#000003E800000C5F
(1554631059.841588) can0 1F1#FF0000000100063E
(1554631059.843871) can0 0FB#0019200401000375
(1554631059.843872) can0 0F4#1A90804000001332
(1554631059.844979) can0 0FA#8C20000150080087
(1554631059.844980) can0 0EE#0000000000000D8B
(1554631059.844981) can0 116#0100000000000CCB
(1554631059.844982) can0 0FC#0D48C0021800031E
(1554631059.846219) can0 0F0#FFC00084BFF805CB
(1554631059.846220) can0 104#000000060000050A
(1554631059.846221) can0 1EF#8800000000000DF8
(1554631059.846221) can0 1F2#0000000000000644
(1554631059.846222) can0 1F7#000000BA06200000
(1554631059.847367) can0 2FA#00094B00
(1554631059.847368) can0 0FF#0020147E7900039B
(1554631059.849905) can0 100#500A014020000451
(1554631059.849906) can0 0FE#8028018000320D0E
(1554631059.849907) can0 0DE#1BF997D0031A
(1554631059.850762) can0 101#000003441FC00D52
(1554631059.850763) can0 103#000003E800000D42
(1554631059.850764) can0 1F5#00003F0000
(1554631059.850764) can0 1F0#001FE00000000000
(1554631059.853902) can0 0FB#0019200401000426
(1554631059.853903) can0 0F4#1A90804000001461
(1554631059.853904) can0 2EF#0F15000000000000
(1554631059.854805) can0 0FA#8C2000015808008B
(1554631059.854806) can0 7D0#00
(1554631059.854807) can0 0EE#0000000000000EAC
(1554631059.854807) can0 116#0100000000000DD6
(1554631059.855988) can0 0FC#0D48C0021800044D
(1554631059.855989) can0 0F0#FFC00084BFF806EC
(1554631059.855989) can0 104#000000060000062D
(1554631059.855990) can0 1F4#000007C00000029A
(1554631059.855991) can0 1FA#4F6CC40000000000
(1554631059.857808) can0 0FF#0020147E790004C8
(1554631059.857809) can0 1F8#40FF8000000001E3
(1554631059.859524) can0 259#0000009030000000
(1554631059.859525) can0 100#500A01402000054C
(1554631059.859526) can0 417#C30008E000000000
(1554631059.860456) can0 0FE#8028018000320E29
(1554631059.860457) can0 0DE#1BF997D00449
(1554631059.860457) can0 101#000003441FC00E75
(1554631059.860461) can0 103#000003E800000E65
(1554631059.860462) can0 1F1#FF00000001000723
(1554631059.861698) can0 419#8A00000C00000000
(1554631059.863863) can0 0FB#001920040100053B
(1554631059.863864) can0 0F4#1A9080400000157C
(1554631059.864971) can0 0FA#8C200001600800AF
(1554631059.864972) can0 0EE#0000000000000FB1
(1554631059.864972) can0 116#0100000000000EF1
(1554631059.864973) can0 0FC#0D48C00218000550
(1554631059.866227) can0 0F0#FFC00084BFF807F1
(1554631059.866228) can0 104#0000000600000730
(1554631059.866229) can0 1EF#8800000000000EDF
(1554631059.866230) can0 1F2#0000000000000759
(1554631059.866230) can0 1F7#000000BA06200000
(1554631059.867380) can0 2FA#000A6C00
(1554631059.867381) can0 0FF#0020147E790005D5
(1554631059.869904) can0 2ED#73000000001C5000
(1554631059.869905) can0 100#500A01402000066B
(1554631059.869906) can0 0FE#7FB8008000320F1F
(1554631059.869906) can0 0DE#1BF997D00554
(1554631059.870763) can0 101#000003441FC00F68
(1554631059.870765) can0 103#000003E800000F78
(1554631059.870765) can0 1F5#00003F0000
(1554631059.870766) can0 1F0#001FE00000000000
(1554631059.873903) can0 0FB#001920040100061C
(1554631059.873904) can0 0F4#1A9080400000165B
(1554631059.874972) can0 0FA#8C200001680800A3
(1554631059.874973) can0 2EC#0000000000000000
(1554631059.874974) can0 7D0#00
(1554631059.874974) can0 0EE#000000000000000A
(1554631059.874975) can0 0FC#0D48C00218000677
(1554631059.876075) can0 116#0100000000000FEC
(1554631059.876075) can0 0F0#FFC00084BFF8084A
(1554631059.876076) can0 104#000000060000088B
(1554631059.876077) can0 1F4#000007C000000387
(1554631059.876077) can0 1FA#4F6CC40000000000
(1554631059.877480) can0 736#0E323331CD000000
(1554631059.877481) can0 0FF#0020147E790006F2
(1554631059.877481) can0 1F8#40FF8000000002C4
(1554631059.879878) can0 100#500A014020000776
(1554631059.879879) can0 0FE#7FD7FF80003200F6
(1554631059.879880) can0 0DE#1BF997D00673
(1554631059.880926) can0 101#000003441FC000D3
(1554631059.880927) can0 103#000003E8000000C3
(1554631059.880928) can0 1F1#FF00000001000898
(1554631059.880928) can0 5E0#00438900000004DA
(1554631059.883432) can0 190#0010000000000EB8
(1554631059.883433) can0 0FB#0019201401000724
(1554631059.883433) can0 0F4#1A90804000001746
(1554631059.884865) can0 0FA#8C200001700800B7
(1554631059.884866) can0 0EE#0000000000000117
(1554631059.884867) can0 116#0100000000000057
(1554631059.886008) can0 0FC#0D60C00218000748
(1554631059.886009) can0 1EF#8800000000000FC2
(1554631059.886009) can0 0F0#FFC00084BFF80957
(1554631059.886010) can0 104#0000000600000996
(1554631059.886011) can0 1F2#00000000000008E2
(1554631059.887216) can0 1F7#000000BA06220000
(1554631059.887217) can0 2FA#000B7100
(1554631059.887218) can0 0FF#0020147E790007EF
(1554631059.889902) can0 100#500200400000089D
(1554631059.889903) can0 41A#C0C700A8AF3660
(1554631059.889903) can0 0FE#8048008000320180
(1554631059.889904) can0 0DE#1BF997D0076E
(1554631059.890966) can0 101#000003441FC001CE
(1554631059.890967) can0 103#000003E8000001DE
(1554631059.890967) can0 1F5#00003F0000
(1554631059.890968) can0 545#681746078011C000
(1554631059.890969) can0 1F0#001FE00000000000
(1554631059.893903) can0 0FB#001920140100089F
(1554631059.893904) can0 0F4#1A90800000001869
(1554631059.894972) can0 0FA#8C200001780800BB
(1554631059.894973) can0 7D0#00
(1554631059.894977) can0 0EE#0000000000000230
(1554631059.894977) can0 116#010000000000014A
(1554631059.894978) can0 0FC#0D60C002180008F3
(1554631059.896218) can0 0F0#FFC00084BFF80A70
(1554631059.896219) can0 104#0000000600000AB1
(1554631059.896220) can0 15C#320001000000075F
(1554631059.896221) can0 1F4#000007C0000004D4
(1554631059.896221) can0 1FA#4F6CC40000000000
(1554631059.897450) can0 41B#43A0000000E80000
(1554631059.897451) can0 0FF#0020147E79000854
(1554631059.898468) can0 1F8#40FF8000000003D9
(1554631059.898469) can0 256#0800007FC4420000
(1554631059.899522) can0 100#5002004000000980
(1554631059.899523) can0 2EE#81A00000
(1554631059.899524) can0 0FE#80280080003202DF
(1554631059.900795) can0 0DE#1BF997D008D5
(1554631059.900796) can0 101#000003441FC002E9
(1554631059.900797) can0 103#000003E8000002F9
(1554631059.900797) can0 1F1#FF00000001000985
(1554631059.900798) can0 41E#FFFDFFFEFF0000C0
(1554631059.902109) can0 420#FF6FF6FF6FF60000
(1554631059.903792) can0 0FB#0019201401000982
(1554631059.903793) can0 0F4#1A90800000001974
(1554631059.903794) can0 2EF#0F15000000000000
(1554631059.904954) can0 0FA#8C200001000800FF
(1554631059.904955) can0 0EE#000000000000032D
(1554631059.904955) can0 116#010000000000026D
(1554631059.905897) can0 0FC#0D60C002180009EE
(1554631059.905898) can0 0F0#FFC00084BFF80B6D
(1554631059.905899) can0 104#0000000600000BAC
(1554631059.905900) can0 1EF#8800000000000079
(1554631059.905900) can0 1F2#00000000000009FF
(1554631059.907242) can0 1F7#000000BA06220000
(1554631059.907243) can0 2FA#000C2200
(1554631059.907244) can0 418#00000B3E
(1554631059.907244) can0 0FF#0020147E79000949
(1554631059.909902) can0 100#5002004000000AA7
(1554631059.909903) can0 1E360001#05
(1554631059.909903) can0 0FE#7FE7FE8000320387
(1554631059.909904) can0 0DE#1BF997D009C8
(1554631059.910771) can0 101#000003441FC003F4
(1554631059.910772) can0 103#000003E8000003E4
(1554631059.910773) can0 1F5#00003F0000
(1554631059.910774) can0 1F0#001FE00000000000
(1554631059.913907) can0 0FB#0019201401000AA5
(1554631059.913908) can0 0F4#1A90800000001A53
(1554631059.914939) can0 0FA#8C200001080800F3
(1554631059.914940) can0 7D0#00
(1554631059.914941) can0 0EE#000000000000047E
(1554631059.914942) can0 116#0100000000000370
(1554631059.915960) can0 0FC#0D60C00218000AC9
(1554631059.915961) can0 0F0#FFC00084BFF80C3E
(1554631059.915961) can0 104#0000000600000CFF
(1554631059.915962) can0 1F4#000007C0000005C9
(1554631059.915963) can0 1FA#4F6CC40000000000
(1554631059.917814) can0 0FF#0020147E79000A6E
(1554631059.917815) can0 1F8#40FF80000000048A
(1554631059.919831) can0 2ED#73000000001C5000
(1554631059.919832) can0 100#5002004000000BBA
(1554631059.919833) can0 0FE#8007FF8000320493
(1554631059.919833) can0 0DE#1BF997D00AEF
(1554631059.920940) can0 101#000003441FC004A7
(1554631059.920941) can0 103#000003E8000004B7
(1554631059.920942) can0 1F1#FF00000001000AA2
(1554631059.920942) can0 73E#02008400
(1554631059.923901) can0 0FB#0019200401000B9D
(1554631059.923902) can0 0F4#1A90800000001B4E
(1554631059.924768) can0 0FA#8C200001100800E7
(1554631059.924769) can0 2EC#0000000000000000
(1554631059.924770) can0 0EE#0000000000000563
(1554631059.924770) can0 116#0100000000000423
(1554631059.926004) can0 0FC#0D54C00218000BED
(1554631059.926005) can0 0F0#FFC00084BFF80D23
(1554631059.926009) can0 104#0000000600000DE2
(1554631059.926010) can0 1EF#8800000000000164
(1554631059.926010) can0 1F2#0000000000000AD8
(1554631059.927211) can0 1F7#000000BA06240000
(1554631059.927212) can0 2FA#000D3F00
(1554631059.927213) can0 412#0F00053240
(1554631059.927214) can0 0FF#0020147E79000B73
(1554631059.927214) can0 1E36000B#05
(1554631059.929542) can0 1E360003#05
(1554631059.929543) can0 100#5002004000000CE9
(1554631059.930447) can0 0FE#8017FE80003205F0
(1554631059.930448) can0 0DE#1BF997D00BF2
(1554631059.930449) can0 101#000003441FC005BA
(1554631059.930449) can0 103#000003E8000005AA
(1554631059.930450) can0 1F5#00003F0000
(1554631059.931716) can0 1F0#001FE00000000000
(1554631059.931717) can0 257#001E30518C400000
(1554631059.933334) can0 190#0010000000000FA5
(1554631059.933336) can0 0FB#0019200401000CCE
(1554631059.933336) can0 0F4#1A90800000001C1D
(1554631059.935115) can0 0FA#8C200001180800EB
(1554631059.935116) can0 7D0#00
(1554631059.935117) can0 0EE#0000000000000644
(1554631059.935118) can0 116#010000000000053E
(1554631059.935118) can0 0FC#0D54C00218000CBE
(1554631059.936224) can0 0F0#FFC00084BFF80E04
(1554631059.936225) can0 104#0000000600000EC5
(1554631059.936226) can0 1F4#000007C0000006EE
(1554631059.936227) can0 1FA#4F6CC40000000000
(1554631059.937767) can0 0FF#0020147E79000C20
(1554631059.937768) can0 1F8#40FF800000000597
(1554631059.939848) can0 100#5002004000000DF4
(1554631059.939849) can0 416#0130304850453836
(1554631059.939850) can0 0DE#1BF997D00CA1
(1554631059.940785) can0 0FE#7FC7FE80003206C6
(1554631059.940786) can0 101#000003441FC0069D
(1554631059.940787) can0 103#000003E80000068D
(1554631059.940787) can0 1F1#FF00000001000BBF
(1554631059.943901) can0 0FB#0019200401000DD3
(1554631059.943902) can0 0F4#1A90800000001D00
(1554631059.945010) can0 0FA#8C200001200800CF
(1554631059.945011) can0 0EE#0000000000000759
(1554631059.945012) can0 116#0100000000000619
(1554631059.945013) can0 0FC#0D54C00218000DA3
(1554631059.946226) can0 1EF#8800000000000243
(1554631059.946227) can0 0F0#FFC00084BFF80F19
(1554631059.946227) can0 104#0000000600000FD8
(1554631059.946228) can0 1F2#0000000000000BC5
(1554631059.946229) can0 1F7#000000BA06240000
(1554631059.947339) can0 2FA#000E1800
(1554631059.947340) can0 0FF#0020147E79000D3D
(1554631059.949904) can0 100#5002004000000ED3
(1554631059.949905) can0 4B1#05C0000CA0000000
(1554631059.949906) can0 0FE#7FD800800032078F
(1554631059.950766) can0 101#000003441FC00780
(1554631059.950767) can0 0DE#1BF997D00DBC
(1554631059.950768) can0 103#000003E800000790
(1554631059.950768) can0 1F5#00003F0000
(1554631059.950769) can0 1F0#001FE00000000000
(1554631059.953906) can0 0FB#0019201401000ED1
(1554631059.953907) can0 0F4#1A90800000001E27
(1554631059.953908) can0 2EF#0F15000000000000
(1554631059.954928) can0 0FA#8C200001280800C3
(1554631059.954929) can0 7D0#00
(1554631059.954930) can0 0EE#00000000000008E2
(1554631059.954930) can0 116#0100000000000704
(1554631059.955968) can0 0FC#0D60C00218000EBD
(1554631059.955969) can0 0F0#FFC00084BFF800A2
(1554631059.955969) can0 104#0000000600000063
(1554631059.955970) can0 1F4#000007C0000007F3
(1554631059.955971) can0 1FA#4F6CC40000000000
(1554631059.956938) can0 738#0000000000
(1554631059.956938) can0 0FF#0020147E79000E1A
(1554631059.958384) can0 1F8#40FF8000000006B0
(1554631059.958384) can0 259#0000009030000000
(1554631059.959747) can0 100#5002004000000FCE
(1554631059.959748) can0 417#C30008E000000000
(1554631059.959749) can0 0FE#801801800032085B
(1554631059.959750) can0 0DE#1BF997D00E9B
(1554631059.960963) can0 101#000003441FC0083B
(1554631059.960964) can0 103#000003E80000082B
(1554631059.960965) can0 1F1#FF00000001000CEC
(1554631059.960966) can0 419#8B00000C00000000
(1554631059.960966) can0 1E360041#05
(1554631059.963906) can0 0FB#0019201401000FCC
(1554631059.963907) can0 0F4#1A90800000001F3A
(1554631059.965015) can0 0FA#8C200001300800D7
(1554631059.965016) can0 0EE#00000000000009FF
(1554631059.965017) can0 116#01000000000008BF
(1554631059.965017) can0 0FC#0D60C00218000FA0
(1554631059.966259) can0 0F0#FFC00084BFF801BF
(1554631059.966260) can0 104#000000060000017E
(1554631059.966260) can0 1EF#880000000000035E
(1554631059.966261) can0 1F2#0000000000000C96
(1554631059.966262) can0 1F7#000000BA06240000
(1554631059.967384) can0 2FA#000F0500
(1554631059.967385) can0 0FF#0020147E79000F07
(1554631059.969904) can0 2ED#73000000001C5000
(1554631059.969905) can0 100#5002004000000075
(1554631059.969906) can0 0FE#8007FE8000320978
(1554631059.969906) can0 0DE#1BF997D00F86
(1554631059.970770) can0 101#000003441FC00926
(1554631059.970771) can0 103#000003E800000936
(1554631059.970771) can0 1F5#00003F0000
(1554631059.970772) can0 1F0#001FE00000000000
(1554631059.973783) can0 0FB#0019201401000077
(1554631059.973784) can0 0F4#1A90800000001081
(1554631059.975030) can0 0FA#8C200001380800DB
(1554631059.975031) can0 2EC#0000000000000000
(1554631059.975032) can0 0EE#0000000000000AD8
(1554631059.975032) can0 116#01000000000009A2
(1554631059.975033) can0 0FC#0D60C0021800001B
(1554631059.976244) can0 0F0#FFC00084BFF80298
(1554631059.976245) can0 104#0000000600000259
(1554631059.976245) can0 1F4#000007C000000848
(1554631059.976246) can0 1FA#4F6CC40000000000
(1554631059.976247) can0 7D0#00
(1554631059.977771) can0 736#0E323231CD000000
(1554631059.977772) can0 0FF#0020147E790000BC
(1554631059.977772) can0 1F8#40FF8000000007AD
(1554631059.979851) can0 100#5002004000000168
(1554631059.979851) can0 0FE#7FE7FD8000320ACC
(1554631059.979852) can0 0DE#1BF997D0003D
(1554631059.980938) can0 101#000003441FC00A01
(1554631059.980939) can0 103#000003E800000A11
(1554631059.980940) can0 1F1#FF00000001000DF1
(1554631059.983436) can0 190#001000000000001E
(1554631059.983437) can0 0FB#001920140100016A
(1554631059.983438) can0 0F4#1A9080000000119C
(1554631059.985128) can0 0FA#8C2000014008009F
(1554631059.985129) can0 0EE#0000000000000BC5
(1554631059.985129) can0 116#0100000000000A85
(1554631059.985130) can0 0FC#0D60C00218000106
(1554631059.986229) can0 0F0#FFC00084BFF80385
(1554631059.986230) can0 104#0000000600000344
(1554631059.986231) can0 1EF#880000000000040D
(1554631059.986231) can0 1F2#0000000000000D8B
(1554631059.986232) can0 1F7#000000BA06280000
(1554631059.987385) can0 2FA#0000BE00
(1554631059.987386) can0 0FF#0020147E790001A1
(1554631059.989875) can0 100#500200400000024F
(1554631059.989876) can0 41A#C0C700A8AF1660
(1554631059.989877) can0 0FE#8028018000320B40
(1554631059.989878) can0 0DE#1BF997D00120
(1554631059.991011) can0 101#000003441FC00B1C
(1554631059.991012) can0 103#000003E800000B0C
(1554631059.991016) can0 1F5#00003F0000
(1554631059.991016) can0 1F0#001FE00000000000
(1554631059.993907) can0 0FB#0019200401000268
(1554631059.993908) can0 0F4#1A908000000012BB
(1554631059.995040) can0 0FA#8C20000148080093
(1554631059.995041) can0 7D0#00
(1554631059.995042) can0 0EE#0000000000000C96
(1554631059.995043) can0 116#0100000000000B98
(1554631059.995043) can0 0FC#0D50C0021800021D
(1554631059.996213) can0 0F0#FFC00084BFF804D6
(1554631059.996214) can0 104#0000000600000417
(1554631059.996215) can0 15C#32000100000008E4
(1554631059.996215) can0 1F4#000007C000000955
(1554631059.996216) can0 1FA#4F6CC40000000000
(1554631059.997449) can0 41B#4320000000E80000
(1554631059.997450) can0 0FF#0020147E79000286
(1554631059.998476) can0 1F8#40FF800000000816
(1554631059.998477) can0 256#0800007FC4420000
(1554631059.999540) can0 100#5002004000000352
(1554631059.999541) can0 2EE#81A00000
(1554631059.999541) can0 0FE#8037FF8000320C47
(1554631060.000848) can0 0DE#1BF997D00207
(1554631060.000849) can0 101#000003441FC00C4F
(1554631060.000849) can0 103#000003E800000C5F
(1554631060.000850) can0 1F1#FF00000001000ED6
(1554631060.000850) can0 41E#FFFDFFFEFF0000C0
(1554631060.002127) can0 420#FF6FF6FF6FF60000
(1554631060.003789) can0 0FB#0019200401000375
(1554631060.003790) can0 0F4#1A908000000013A6
(1554631060.003790) can0 2EF#0F15000000000000
(1554631060.005046) can0 0FA#8C20000150080087
(1554631060.005047) can0 0EE#0000000000000D8B
(1554631060.005048) can0 116#0100000000000CCB
(1554631060.005049) can0 0FC#0D50C00218000300
(1554631060.006217) can0 1EF#8800000000000510
(1554631060.006218) can0 0F0#FFC00084BFF805CB
(1554631060.006218) can0 104#000000060000050A
(1554631060.006219) can0 1F2#0000000000000EAC
(1554631060.006220) can0 1F7#000000BA06280000
(1554631060.007358) can0 2FA#0001A300
(1554631060.007359) can0 418#00000C6D
(1554631060.007360) can0 4AF#0020000400000000
(1554631060.007361) can0 0FF#0020147E7900039B
(1554631060.009910) can0 100#5002004000000401
(1554631060.009911) can0 384#081DAA8800C00000
(1554631060.009912) can0 0FE#7FD7FE8000320D1D
(1554631060.010709) can0 101#000003441FC00D52
(1554631060.010710) can0 0DE#1BF997D0031A
(1554631060.010710) can0 103#000003E800000D42
(1554631060.010711) can0 1F5#00003F0000
(1554631060.010712) can0 1F0#001FE00000000000
(1554631060.013916) can0 0FB#0019200401000426
(1554631060.013917) can0 0F4#1A908000000014F5
(1554631060.014931) can0 0FA#8C2000015808008B
(1554631060.014931) can0 7D0#00
(1554631060.014932) can0 0EE#0000000000000EAC
(1554631060.014933) can0 116#0100000000000DD6
(1554631060.015965) can0 0FC#0D50C00218000453
(1554631060.015966) can0 0F0#FFC00084BFF806EC
(1554631060.015967) can0 104#000000060000062D
(1554631060.015968) can0 1F4#000007C000000A72
(1554631060.015968) can0 1FA#4F6CC40000000000
(1554631060.017814) can0 0FF#0020147E790004C8
(1554631060.017815) can0 1F8#40FF80000000090B
(1554631060.019843) can0 2ED#73000000001C5000
(1554631060.019844) can0 100#500200400000051C
(1554631060.019845) can0 0FE#7FE7FF8000320E6C
(1554631060.019845) can0 0DE#1BF997D00449
(1554631060.020944) can0 101#000003441FC00E75
(1554631060.020945) can0 103#000003E800000E65
(1554631060.020946) can0 1F1#FF00000001000FCB
(1554631060.023905) can0 0FB#001920140100051E
(1554631060.023906) can0 0F4#1A908000000015E8
(1554631060.025041) can0 0FA#8C200001600800AF
(1554631060.025042) can0 2EC#0000000000000000
(1554631060.025042) can0 0EE#0000000000000FB1
(1554631060.025043) can0 116#0100000000000EF1
(1554631060.025044) can0 0FC#0D58C00218000544
(1554631060.026272) can0 0F0#FFC00084BFF807F1
(1554631060.026273) can0 104#0000000600000730
(1554631060.026274) can0 1EF#8800000000000637
(1554631060.026274) can0 1F2#0000000000000FB1
(1554631060.026275) can0 1F7#000000BA06260000
(1554631060.027410) can0 2FA#00028400
(1554631060.027411) can0 412#0F00053240
(1554631060.027412) can0 0FF#0020147E790005D5
(1554631060.029619) can0 100#500200400000063B
(1554631060.029620) can0 0FE#8038008000320F4A
(1554631060.029621) can0 0DE#1BF997D00554
(1554631060.030826) can0 101#000003441FC00F68
(1554631060.030827) can0 103#000003E800000F78
(1554631060.030828) can0 1F5#00003F0000
(1554631060.030829) can0 1F0#001FE00000000000
(1554631060.032734) can0 257#001E30518C400000
(1554631060.032736) can0 190#0010000000000103
(1554631060.033669) can0 0FB#0019201401000639
(1554631060.033670) can0 0F4#1A908000000016CF
(1554631060.034884) can0 0FA#8C200001680800A3
(1554631060.034885) can0 7D0#00
(1554631060.034886) can0 0EE#000000000000000A
(1554631060.034887) can0 116#0100000000000FEC
(1554631060.034887) can0 0FC#0D58C00218000663
(1554631060.036010) can0 0F0#FFC00084BFF8084A
(1554631060.036011) can0 104#000000060000088B
(1554631060.036011) can0 1F4#000007C000000B6F
(1554631060.036012) can0 1FA#4F6CC40000000000
(1554631060.037534) can0 0FF#0020147E790006F2
(1554631060.037535) can0 1F8#40FF800000000A2C
(1554631060.039887) can0 100#5002004000000726
(1554631060.039888) can0 0FE#7FE801800032008A
(1554631060.039889) can0 0DE#1BF997D00673
(1554631060.040935) can0 101#000003441FC000D3
(1554631060.040936) can0 103#000003E8000000C3
(1554631060.040936) can0 1F1#FF00000001000070
(1554631060.040937) can0 416#0235353400000000
(1554631060.043907) can0 0FB#0019201401000724
(1554631060.043908) can0 0F4#1A908000000017D2
(1554631060.044980) can0 0FA#8C200001700800B7
(1554631060.044981) can0 5A6#8004D2186C800000
(1554631060.044982) can0 0EE#0000000000000117
(1554631060.044982) can0 116#0100000000000057
(1554631060.045990) can0 0FC#0D58C0021800077E
(1554631060.045991) can0 0F0#FFC00084BFF80957
(1554631060.045992) can0 104#0000000600000996
(1554631060.045992) can0 1EF#880000000000072A
(1554631060.045993) can0 1F2#000000000000000A
(1554631060.047252) can0 1F7#000000BA06260000
(1554631060.047253) can0 2FA#00039900
(1554631060.047254) can0 0FF#0020147E790007EF
(1554631060.049909) can0 100#500200400000089D
(1554631060.049910) can0 0FE#7FB80180003201D3
(1554631060.049911) can0 0DE#1BF997D0076E
(1554631060.050763) can0 101#000003441FC001CE
(1554631060.050764) can0 103#000003E8000001DE
(1554631060.050765) can0 1F5#00003F0000
(1554631060.050765) can0 1F0#001FE00000000000
(1554631060.053908) can0 0FB#001920140100089F
(1554631060.053910) can0 0F4#1A90800000001869
(1554631060.053910) can0 2EF#0F15000000000000
(1554631060.055067) can0 0FA#8C200001780800BB
(1554631060.055068) can0 7D0#00
(1554631060.055069) can0 0EE#0000000000000230
(1554631060.055069) can0 116#010000000000014A
(1554631060.055070) can0 0FC#0D58C002180008C5
(1554631060.056239) can0 0F0#FFC00084BFF80A70
(1554631060.056240) can0 104#0000000600000AB1
(1554631060.056244) can0 1F4#000007C000000C3C
(1554631060.056244) can0 1FA#4F6CC40000000000
(1554631060.057768) can0 0FF#0020147E79000854
(1554631060.057769) can0 1F8#40FF800000000B31
(1554631060.059539) can0 259#0000009030000000
(1554631060.059540) can0 100#5002004000000980
(1554631060.059541) can0 417#C30008E000000000
(1554631060.060459) can0 0FE#80280080003202DF
(1554631060.060460) can0 0DE#1BF997D008D5
(1554631060.060460) can0 101#000003441FC002E9
(1554631060.060461) can0 103#000003E8000002F9
(1554631060.060461) can0 1F1#FF0000000100016D
(1554631060.061705) can0 419#8A00000C00000000
(1554631060.063865) can0 0FB#0018A014010009E7
(1554631060.063866) can0 0F4#1A908040000019E0
(1554631060.065078) can0 0FA#8C200001000800FF
(1554631060.065079) can0 0EE#000000000000032D
(1554631060.065080) can0 116#010000000000026D
(1554631060.065081) can0 0FC#0D2CC002180009B1
(1554631060.066207) can0 1EF#8800000000000891
(1554631060.066208) can0 0F0#FFC00084BFF80B6D
(1554631060.066209) can0 104#0000000600000BAC
(1554631060.066210) can0 1F2#0000000000000117
(1554631060.066210) can0 1F7#000000BA06240000
(1554631060.067364) can0 2FA#0004CA00
(1554631060.067365) can0 0FF#0020148079000972
(1554631060.069905) can0 2ED#73000000001C5000
(1554631060.069906) can0 100#500A014020000AF7
(1554631060.069907) can0 0FE#8067FD800032036C
(1554631060.069907) can0 0DE#1BF997D009C8
(1554631060.070632) can0 101#000003441FC003F4
(1554631060.070633) can0 103#000003E8000003E4
(1554631060.070633) can0 1F5#00003F0000
(1554631060.070634) can0 1F0#001FE00000000000
(1554631060.073912) can0 0FB#0018A01401000AC0
(1554631060.073913) can0 0F4#1A90804000001AC7
(1554631060.075071) can0 0FA#8C200001080800F3
(1554631060.075072) can0 2EC#0000000000000000
(1554631060.075072) can0 0EE#000000000000047E
(1554631060.075073) can0 116#0100000000000370
(1554631060.075073) can0 0FC#0D2CC00218000A96
(1554631060.076278) can0 0F0#FFC00084BFF80C3E
(1554631060.076279) can0 104#0000000600000CFF
(1554631060.076279) can0 1F4#000007C000000D21
(1554631060.076280) can0 1FA#4F6CC40000000000
(1554631060.076280) can0 7D0#00
(1554631060.077754) can0 736#0E323332CD000000
(1554631060.077755) can0 0FF#0020148079000A55
(1554631060.077755) can0 1F8#40FF800000000C62
(1554631060.079853) can0 100#500A014020000BEA
(1554631060.079854) can0 0FE#7FF7FF80003204AA
(1554631060.079854) can0 0DE#1BF997D00AEF
(1554631060.080946) can0 101#000003441FC004A7
(1554631060.080947) can0 103#000003E8000004B7
(1554631060.080948) can0 1F1#FF0000000100024A
(1554631060.083425) can0 190#0010000000000224
(1554631060.083426) can0 0FB#0018A01401000BDD
(1554631060.083427) can0 0F4#1A90804000001BDA
(1554631060.085122) can0 0FA#8C200001100800E7
(1554631060.085123) can0 0EE#0000000000000563
(1554631060.085124) can0 116#0100000000000423
(1554631060.085124) can0 0FC#0D2CC00218000B8B
(1554631060.086231) can0 0F0#FFC00084BFF80D23
(1554631060.086232) can0 104#0000000600000DE2
(1554631060.086233) can0 1EF#880000000000098C
(1554631060.086233) can0 1F2#0000000000000230
(1554631060.086234) can0 1F7#000000BA06200000
(1554631060.087391) can0 2FA#0005D700
(1554631060.087393) can0 0FF#0020148079000B48
(1554631060.089905) can0 100#500A014020000CB9
(1554631060.089906) can0 41A#C0C700A8AF6660
(1554631060.089907) can0 0FE#7FC80080003205A1
(1554631060.089907) can0 0DE#1BF997D00BF2
(1554631060.091036) can0 101#000003441FC005BA
(1554631060.091037) can0 103#000003E8000005AA
(1554631060.091038) can0 1F5#00003F0000
(1554631060.091038) can0 1F0#001FE00000000000
(1554631060.093908) can0 0FB#0018A02401000CE1
(1554631060.093909) can0 0F4#1A90804000001C89
(1554631060.095065) can0 0FA#8C200001180800EB
(1554631060.095066) can0 7D0#00
(1554631060.095066) can0 0EE#0000000000000644
(1554631060.095067) can0 116#010000000000053E
(1554631060.095068) can0 0FC#0D3CC00218000CCC
(1554631060.096212) can0 0F0#FFC00084BFF80E04
(1554631060.096213) can0 104#0000000600000EC5
(1554631060.096213) can0 15C#32000100000009F9
(1554631060.096214) can0 1F4#000007C000000E06
(1554631060.096215) can0 1FA#4F6CC40000000000
(1554631060.097432) can0 41B#4320000000E80000
(1554631060.097433) can0 0FF#0020148079000C1B
(1554631060.098413) can0 1F8#40FF800000000D7F
(1554631060.098414) can0 256#0800007FC4420000
(1554631060.099527) can0 100#500A014020000DA4
(1554631060.099527) can0 2EE#81A00000
(1554631060.099528) can0 0DE#1BF997D00CA1
(1554631060.100860) can0 0FE#8027FE80003206EB
(1554631060.100861) can0 101#000003441FC0069D
(1554631060.100861) can0 103#000003E80000068D
(1554631060.100862) can0 1F1#FF00000001000357
(1554631060.100863) can0 41E#FFFDFFFEFF0000C0
(1554631060.102160) can0 420#FF6FF6FF6FF60000
(1554631060.103796) can0 0FB#0018A02401000DFC
(1554631060.103797) can0 0F4#1A90804000001D94
(1554631060.103798) can0 2EF#0F15000000000000
(1554631060.105095) can0 0FA#8C200001200800CF
(1554631060.105096) can0 0EE#0000000000000759
(1554631060.105096) can0 116#0100000000000619
(1554631060.105097) can0 0FC#0D3CC00218000DD1
(1554631060.106182) can0 0F0#FFC00084BFF80F19
(1554631060.106183) can0 104#0000000600000FD8
(1554631060.106184) can0 1EF#8800000000000AAB
(1554631060.106184) can0 1F2#000000000000032D
(1554631060.106185) can0 1F7#000000BA061C0000
(1554631060.107369) can0 2FA#0006F000
(1554631060.107370) can0 418#00000D70
(1554631060.107371) can0 0FF#0020147E79000D3D
(1554631060.109515) can0 100#500A014020000E83
(1554631060.109516) can0 0FE#8017FF80003207A0
(1554631060.109517) can0 0DE#1BF997D00DBC
(1554631060.110650) can0 101#000003441FC00780
(1554631060.110651) can0 103#000003E800000790
(1554631060.110651) can0 1F5#00003F0000
(1554631060.110652) can0 1F0#001FE00000000000
(1554631060.113513) can0 0FB#0018A02401000EDB
(1554631060.113514) can0 0F4#1A90804000001EB3
(1554631060.115005) can0 0FA#8C200001280800C3
(1554631060.115006) can0 7D0#00
(1554631060.115007) can0 0EE#00000000000008E2
(1554631060.115007) can0 116#0100000000000704
(1554631060.115954) can0 0FC#0D3CC00218000EF6
(1554631060.115955) can0 0F0#FFC00084BFF800A2
(1554631060.115955) can0 104#0000000600000063
(1554631060.115956) can0 1F4#000007C000000F1B
(1554631060.115956) can0 1FA#4F6CC40000000000
(1554631060.117499) can0 0FF#0020147E79000E1A
(1554631060.117500) can0 226#0000000000000000
(1554631060.117500) can0 1F8#40FF800000000E58
(1554631060.119497) can0 2ED#73000000001C5000
(1554631060.119498) can0 100#500A014020000F9E
(1554631060.119498) can0 0FE#7FD7FF800032081E
(1554631060.119499) can0 0DE#1BF997D00E9B
(1554631060.120646) can0 101#000003441FC0083B
(1554631060.120646) can0 103#000003E80000082B
(1554631060.120647) can0 1F1#FF00000001000404
(1554631060.123496) can0 0FB#0018A02401000FC6
(1554631060.123498) can0 0F4#1A90804000001FAE
(1554631060.124699) can0 0FA#8C200001300800D7
(1554631060.124700) can0 2EC#0000000000000000
(1554631060.124701) can0 0EE#00000000000009FF
(1554631060.124702) can0 116#01000000000008BF
(1554631060.126019) can0 0FC#0D3CC00218000FEB
(1554631060.126020) can0 1EF#8800000000000BB6
(1554631060.126021) can0 0F0#FFC00084BFF801BF
(1554631060.126021) can0 104#000000060000017E
(1554631060.126022) can0 1F2#000000000000047E
(1554631060.127223) can0 1F7#000000BA061E0000
(1554631060.127224) can0 2FA#0007ED00
(1554631060.127224) can0 412#0F00053240
(1554631060.127225) can0 0FF#0020147E79000F07
(1554631060.129695) can0 100#500A014020000025
(1554631060.129696) can0 0FE#8027FF800032093A
(1554631060.129697) can0 0DE#1BF997D00F86
(1554631060.130817) can0 101#000003441FC00926
(1554631060.130818) can0 103#000003E800000936
(1554631060.130819) can0 1F5#00003F0000
(1554631060.130819) can0 5E0#00438900000005C7
(1554631060.130820) can0 1F0#001FE00000000000
(1554631060.132653) can0 15A#80000E97
(1554631060.132654) can0 257#001E30518C400000
(1554631060.132655) can0 190#0010000000000339
(1554631060.133596) can0 0FB#0018A01401000012
(1554631060.133598) can0 0F4#1A90804000001015
(1554631060.135137) can0 0FA#8C200001380800DB
(1554631060.135138) can0 7D0#00
(1554631060.135138) can0 0EE#0000000000000AD8
(1554631060.135139) can0 116#01000000000009A2
(1554631060.135139) can0 0FC#0D40C00218000033
(1554631060.136233) can0 0F0#FFC00084BFF80298
(1554631060.136234) can0 104#0000000600000259
(1554631060.136235) can0 1F4#000007C0000000A0
(1554631060.136235) can0 1FA#4F6CC40000000000
(1554631060.137743) can0 0FF#0020147E790000BC
(1554631060.137745) can0 1F8#40FF800000000F45
(1554631060.139886) can0 100#500A014020000138
(1554631060.139887) can0 0FE#8067FF8000320A4D
(1554631060.139887) can0 0DE#1BF997D0003D
(1554631060.140681) can0 101#000003441FC00A01
(1554631060.140682) can0 103#000003E800000A11
(1554631060.140682) can0 1F1#FF00000001000519
(1554631060.140683) can0 416#0031433442553030
(1554631060.140684) can0 545#6817060780120000
(1554631060.143940) can0 0FB#0018A0140100010F
(1554631060.143941) can0 0F4#1A90804000001108
(1554631060.145066) can0 0FA#8C2000014008009F
(1554631060.145067) can0 0EE#0000000000000BC5
(1554631060.145068) can0 116#0100000000000A85
(1554631060.145068) can0 0FC#0D40C0021800012E
(1554631060.146186) can0 0F0#FFC00084BFF80385
(1554631060.146187) can0 104#0000000600000344
(1554631060.146188) can0 1EF#8800000000000CE5
(1554631060.146189) can0 1F2#0000000000000563
(1554631060.146189) can0 1F7#000000BA061E0000
(1554631060.147341) can0 2FA#00085600
(1554631060.147342) can0 0FF#0020147E790001A1
(1554631060.149950) can0 100#500A01402000021F
(1554631060.149951) can0 0FE#7FF8008000320B3B
(1554631060.149952) can0 0DE#1BF997D00120
(1554631060.150817) can0 101#000003441FC00B1C
(1554631060.150818) can0 103#000003E800000B0C
(1554631060.150819) can0 1F5#00003F0000
(1554631060.150819) can0 1F0#001FE00000000000
(1554631060.153600) can0 0FB#0018A01401000228
(1554631060.153600) can0 0F4#1A9080400000122F
(1554631060.153601) can0 2EF#0F15000000000000
(1554631060.155085) can0 0FA#8C20000148080093
(1554631060.155086) can0 7D0#00
(1554631060.155087) can0 0EE#0000000000000C96
(1554631060.155087) can0 116#0100000000000B98
(1554631060.155091) can0 0FC#0D40C00218000209
(1554631060.156115) can0 0F0#FFC00084BFF804D6
(1554631060.156116) can0 104#0000000600000417
(1554631060.156116) can0 1F4#000007C0000001BD
(1554631060.156117) can0 1FA#4F6CC40000000000
(1554631060.157823) can0 0FF#0020147E79000286
(1554631060.157824) can0 1F8#40FF8000000000FE
(1554631060.159452) can0 259#0000009030000000
(1554631060.159453) can0 100#500A014020000302
(1554631060.159454) can0 417#C30008E000000000
(1554631060.160417) can0 0FE#7FB8018000320C52
(1554631060.160418) can0 0DE#1BF997D00207
(1554631060.160419) can0 101#000003441FC00C4F
(1554631060.160419) can0 103#000003E800000C5F
(1554631060.160420) can0 1F1#FF0000000100063E
(1554631060.161691) can0 419#8A00000C00000000
(1554631060.163871) can0 0FB#0018A01401000335
(1554631060.163872) can0 0F4#1A90804000001332
(1554631060.164974) can0 0FA#8C20000150080087
(1554631060.164975) can0 0EE#0000000000000D8B
(1554631060.164976) can0 116#0100000000000CCB
(1554631060.164976) can0 0FC#0D50C00218000300
(1554631060.166115) can0 0F0#FFC00084BFF805CB
(1554631060.166116) can0 104#000000060000050A
(1554631060.166117) can0 1EF#8800000000000DF8
(1554631060.166117) can0 1F2#0000000000000644
(1554631060.166118) can0 1F7#000000BA061C0000
(1554631060.167350) can0 2FA#00094B00
(1554631060.167350) can0 0FF#0020147E7900039B
(1554631060.169914) can0 2ED#73000000001C5000
(1554631060.169915) can0 100#500A014020000451
(1554631060.169916) can0 73E#02008400
(1554631060.169916) can0 0FE#7FD8018000320D37
(1554631060.170771) can0 0DE#1BF997D0031A
(1554631060.170772) can0 101#000003441FC00D52
(1554631060.170773) can0 103#000003E800000D42
(1554631060.170773) can0 1F5#00003F0000
(1554631060.170774) can0 1F0#001FE00000000000
(1554631060.173911) can0 0FB#0019201401000403
(1554631060.173912) can0 0F4#1A908000000014F5
(1554631060.175097) can0 0FA#8C2000015808008B
(1554631060.175098) can0 2EC#0000000000000000
(1554631060.175099) can0 0EE#0000000000000EAC
(1554631060.175099) can0 0FC#0D50C00218000453
(1554631060.175100) can0 116#0100000000000DD6
(1554631060.176330) can0 0F0#FFC00084BFF806EC
(1554631060.176330) can0 104#000000060000062D
(1554631060.176331) can0 158#000002CB
(1554631060.176332) can0 1F4#000007C00000029A
(1554631060.176332) can0 1FA#4F6CC40000000000
(1554631060.177303) can0 7D0#00
(1554631060.177304) can0 736#0E323331CD000000
(1554631060.177305) can0 0FF#0020147E790004C8
(1554631060.178837) can0 1F8#40FF8000000001E3
(1554631060.178837) can0 100#500200400000051C
(1554631060.180627) can0 0FE#7FE8008000320E46
(1554631060.180629) can0 0DE#1BF997D00449
(1554631060.180630) can0 101#000003441FC00E75
(1554631060.180631) can0 103#000003E800000E65
(1554631060.180632) can0 1F1#FF00000001000723
(1554631060.183437) can0 190#001000000000046A
(1554631060.183438) can0 0FB#001920140100051E
(1554631060.183439) can0 0F4#1A908000000015E8
(1554631060.185196) can0 0FA#8C200001600800AF
(1554631060.185197) can0 0EE#0000000000000FB1
(1554631060.185198) can0 116#0100000000000EF1
(1554631060.185198) can0 0FC#0D50C0021800054E
(1554631060.186199) can0 1EF#8800000000000EDF
(1554631060.186200) can0 0F0#FFC00084BFF807F1
(1554631060.186201) can0 104#0000000600000730
(1554631060.186201) can0 1F2#0000000000000759
(1554631060.186202) can0 1F7#000000BA061E0000
(1554631060.187374) can0 2FA#000A6C00
(1554631060.187378) can0 0FF#0020147E790005D5
(1554631060.189911) can0 100#500200400000063B
(1554631060.189912) can0 41A#C14700A8AEE660
(1554631060.189912) can0 0DE#1BF997D00554
(1554631060.190774) can0 0FE#7FD7FE8010320F3F
(1554631060.190775) can0 101#000003441FC00F68
(1554631060.190776) can0 103#000003E800000F78
(1554631060.190776) can0 1F5#00003F0000
(1554631060.190777) can0 1F0#001FE00000000000
(1554631060.193914) can0 0FB#0019201401000639
(1554631060.193915) can0 0F4#1A908000000016CF
(1554631060.194699) can0 0FA#8C200001680800A3
(1554631060.194701) can0 7D0#00
(1554631060.194701) can0 0EE#000000000000000A
(1554631060.194702) can0 116#0100000000000FEC
(1554631060.194702) can0 0FC#0D50C00218000669
(1554631060.196288) can0 0F0#FFC00084BFF8084A
(1554631060.196289) can0 104#000000060000088B
(1554631060.196290) can0 15C#3200010000000ADE
(1554631060.196290) can0 1F4#000007C000000387
(1554631060.196291) can0 1FA#4F6CC40000000000
(1554631060.197436) can0 41B#4320000000E80000
(1554631060.197437) can0 0FF#0020147E790006F2
(1554631060.198567) can0 1F8#40FF8000000002C4
(1554631060.198568) can0 256#0800007FC4420000
(1554631060.199716) can0 100#5002004000000726
(1554631060.199717) can0 2EE#81A00000
(1554631060.199717) can0 5A6#8004D2186C800000
(1554631060.199718) can0 0FE#8037FE80003200B1
(1554631060.199718) can0 0DE#1BF997D00673
(1554631060.201017) can0 101#000003441FC000D3
(1554631060.201018) can0 103#000003E8000000C3
(1554631060.201019) can0 1F1#FF00000001000898
(1554631060.201020) can0 41E#FFFDFFFEFF0000C0
(1554631060.201020) can0 420#FF6FF6FF6FF60000
(1554631060.203914) can0 0FB#0019200401000701
(1554631060.203915) can0 0F4#1A908000000017D2
(1554631060.203916) can0 2EF#0F15000000000000
(1554631060.204999) can0 0FA#8C200001700800B7
(1554631060.205000) can0 0EE#0000000000000117
(1554631060.205001) can0 116#0100000000000057
(1554631060.205002) can0 0FC#0D40C00218000760
(1554631060.206231) can0 0F0#FFC00084BFF80957
(1554631060.206232) can0 104#0000000600000996
(1554631060.206233) can0 1EF#8800000000000FC2
(1554631060.206233) can0 1F2#00000000000008E2
(1554631060.206234) can0 1F7#000000BA061E0000
(1554631060.207144) can0 2FA#000B7100
(1554631060.207144) can0 418#00000E57
(1554631060.207145) can0 0FF#0020147E790007EF
(1554631060.209533) can0 100#500A0140200008CD
(1554631060.209533) can0 0FE#80680180003201C2
(1554631060.209534) can0 0DE#1BF997D0076E
(1554631060.210615) can0 101#000003441FC001CE
(1554631060.210615) can0 103#000003E8000001DE
(1554631060.210616) can0 1F5#00003F0000
(1554631060.210617) can0 1F0#001FE00000000000
(1554631060.213737) can0 0FB#00192004010008BA
(1554631060.213738) can0 0F4#1A908040000018FD
(1554631060.215136) can0 0FA#8C200001780800BB
(1554631060.215137) can0 7D0#00
(1554631060.215138) can0 0EE#0000000000000230
(1554631060.215138) can0 116#010000000000014A
(1554631060.215139) can0 0FC#0D40C002180008DB
(1554631060.216201) can0 0F0#FFC00084BFF80A70
(1554631060.216202) can0 104#0000000600000AB1
(1554631060.216203) can0 1F4#000007C0000004D4
(1554631060.216203) can0 1FA#4F6CC40000000000
(1554631060.217785) can0 0FF#0020147E79000854
(1554631060.217786) can0 1F8#40FF8000000003D9
(1554631060.219859) can0 2ED#73000000001C5000
(1554631060.219860) can0 100#500A0140200009D0
(1554631060.219861) can0 0FE#7FF80080003202CE
(1554631060.219864) can0 0DE#1BF997D008D5
(1554631060.220965) can0 101#000003441FC002E9
(1554631060.220966) can0 103#000003E8000002F9
(1554631060.220966) can0 1F1#FF00000001000985
(1554631060.223533) can0 0FB#00192004010009A7
(1554631060.223533) can0 0F4#1A908040000019E0
(1554631060.225127) can0 0FA#8C200001000800FF
(1554631060.225128) can0 2EC#0000000000000000
(1554631060.225129) can0 0EE#000000000000032D
(1554631060.225130) can0 116#010000000000026D
(1554631060.225130) can0 0FC#0D40C002180009C6
(1554631060.226017) can0 0F0#FFC00084BFF80B6D
(1554631060.226018) can0 104#0000000600000BAC
(1554631060.226018) can0 1EF#8800000000000079
(1554631060.226019) can0 1F2#00000000000009FF
(1554631060.226019) can0 1F7#000000BA06200000
(1554631060.227472) can0 2FA#000C2200
(1554631060.227473) can0 412#0F00053240
(1554631060.227473) can0 0FF#0020147E79000949
(1554631060.229907) can0 100#500A014020000AF7
(1554631060.229908) can0 0FE#7FB8008000320383
(1554631060.229908) can0 0DE#1BF997D009C8
(1554631060.230773) can0 101#000003441FC003F4
(1554631060.230774) can0 103#000003E8000003E4
(1554631060.230774) can0 1F5#00003F0000
(1554631060.230775) can0 1F0#001FE00000000000
(1554631060.232818) can0 257#001E30518C400000
(1554631060.232819) can0 190#0010000000000577
(1554631060.233724) can0 0FB#0019200401000A80
(1554631060.233725) can0 0F4#1A90804000001AC7
(1554631060.234775) can0 0FA#8C200001080800F3
(1554631060.234776) can0 7D0#00
(1554631060.234776) can0 0EE#000000000000047E
(1554631060.234777) can0 116#0100000000000370
(1554631060.235737) can0 0FC#0D44C00218000AE4
(1554631060.235738) can0 0F0#FFC00084BFF80C3E
(1554631060.235738) can0 104#0000000600000CFF
(1554631060.235739) can0 1F4#000007C0000005C9
(1554631060.235739) can0 1FA#4F6CC40000000000
(1554631060.237913) can0 0FF#0020147E79000A6E
(1554631060.237914) can0 1F8#40FF80000000048A
(1554631060.239897) can0 100#500A014020000BEA
(1554631060.239898) can0 0FE#8007FF8000320493
(1554631060.239899) can0 0DE#1BF997D00AEF
(1554631060.240944) can0 101#000003441FC004A7
(1554631060.240945) can0 103#000003E8000004B7
(1554631060.240946) can0 1F1#FF00000001000AA2
(1554631060.240947) can0 416#0130304850453836
(1554631060.243909) can0 0FB#0019201401000BB8
(1554631060.243910) can0 0F4#1A90804000001BDA
(1554631060.244815) can0 0FA#8C200001100800E7
(1554631060.244816) can0 0EE#0000000000000563
(1554631060.244817) can0 116#0100000000000423
(1554631060.244817) can0 0FC#0D44C00218000BF9
(1554631060.246219) can0 1EF#8800000000000164
(1554631060.246220) can0 0F0#FFC00084BFF80D23
(1554631060.246221) can0 104#0000000600000DE2
(1554631060.246221) can0 1F2#0000000000000AD8
(1554631060.246222) can0 1F7#000000BA061C0000
(1554631060.247352) can0 2FA#000D3F00
(1554631060.247353) can0 0FF#0020147E79000B73
(1554631060.249916) can0 100#500A014020000CB9
(1554631060.249917) can0 0FE#8027FE80003205CC
(1554631060.249917) can0 0DE#1BF997D00BF2
(1554631060.250927) can0 101#000003441FC005BA
(1554631060.250928) can0 103#000003E8000005AA
(1554631060.250928) can0 1F5#00003F0000
(1554631060.250929) can0 1F0#001FE00000000000
(1554631060.253923) can0 0FB#0019201401000CEB
(1554631060.253925) can0 0F4#1A90804000001C89
(1554631060.253925) can0 2EF#0F15000000000000
(1554631060.255159) can0 0FA#8C200001180800EB
(1554631060.255160) can0 7D0#00
(1554631060.255164) can0 0EE#0000000000000644
(1554631060.255165) can0 116#010000000000053E
(1554631060.255166) can0 0FC#0D44C00218000CAA
(1554631060.256224) can0 0F0#FFC00084BFF80E04
(1554631060.256225) can0 104#0000000600000EC5
(1554631060.256226) can0 1F4#000007C0000006EE
(1554631060.256227) can0 1FA#4F6CC40000000000
(1554631060.256227) can0 5AD#FB00000000000000
(1554631060.257774) can0 0FF#0020147E79000C20
(1554631060.257776) can0 1F8#40FF800000000597
(1554631060.259549) can0 259#0000009030000000
(1554631060.259550) can0 100#500A014020000DA4
(1554631060.259550) can0 417#C30008E000000000
(1554631060.260521) can0 0FE#7FC7FE80003206C6
(1554631060.260522) can0 0DE#1BF997D00CA1
(1554631060.260523) can0 101#000003441FC0069D
(1554631060.260524) can0 103#000003E80000068D
(1554631060.260524) can0 1F1#FF00000001000BBF
(1554631060.261697) can0 384#081DAA8800C00000
(1554631060.261698) can0 419#8A00000C00000000
(1554631060.263532) can0 0FB#0019201401000DF6
(1554631060.263533) can0 0F4#1A90804000001D94
(1554631060.264896) can0 0FA#8C200001200800CF
(1554631060.264897) can0 0EE#0000000000000759
(1554631060.264898) can0 116#0100000000000619
(1554631060.264898) can0 0FC#0D44C00218000DB7
(1554631060.265993) can0 0F0#FFC00084BFF80F19
(1554631060.265994) can0 104#0000000600000FD8
(1554631060.265994) can0 1EF#8800000000000243
(1554631060.265995) can0 1F2#0000000000000BC5
(1554631060.265995) can0 1F7#000000BA061C0000
(1554631060.267143) can0 2FA#000E1800
(1554631060.267144) can0 0FF#0020147E79000D3D
(1554631060.269916) can0 2ED#73000000001C5000
(1554631060.269917) can0 100#500A014020000E83
(1554631060.269918) can0 0FE#7FE80180003207D9
(1554631060.269918) can0 0DE#1BF997D00DBC
(1554631060.270935) can0 101#000003441FC00780
(1554631060.270936) can0 103#000003E800000790
(1554631060.270936) can0 1F5#00003F0000
(1554631060.270937) can0 1F0#001FE00000000000
(1554631060.273914) can0 0FB#0019201401000ED1
(1554631060.273915) can0 0F4#1A90804000001EB3
(1554631060.275133) can0 0FA#8C200001280800C3
(1554631060.275134) can0 2EC#0000000000000000
(1554631060.275135) can0 0EE#00000000000008E2
(1554631060.275135) can0 0FC#0D48C00218000E9F
(1554631060.275136) can0 116#0100000000000704
(1554631060.276121) can0 0F0#FFC00084BFF800A2
(1554631060.276121) can0 104#0000000600000063
(1554631060.276122) can0 1F4#000007C0000007F3
(1554631060.276122) can0 1FA#4F6CC40000000000
(1554631060.276123) can0 7D0#00
(1554631060.277544) can0 736#0E323331CD000000
(1554631060.277545) can0 0FF#0020147E79000E1A
(1554631060.277546) can0 1F8#40FF8000000006B0
(1554631060.279537) can0 100#500A014020000F9E
(1554631060.279538) can0 0FE#8038018000320873
(1554631060.279538) can0 0DE#1BF997D00E9B
(1554631060.280717) can0 101#000003441FC0083B
(1554631060.280718) can0 103#000003E80000082B
(1554631060.280719) can0 1F1#FF00000001000CEC
(1554631060.282962) can0 190#0010000000000650
(1554631060.282962) can0 0FB#0019201401000FCC
(1554631060.282963) can0 0F4#1A90804000001FAE
(1554631060.284791) can0 0FA#8C200001300800D7
(1554631060.284792) can0 0EE#00000000000009FF
(1554631060.284792) can0 116#01000000000008BF
(1554631060.284793) can0 0FC#0D48C00218000F82
(1554631060.285964) can0 0F0#FFC00084BFF801BF
(1554631060.285965) can0 104#000000060000017E
(1554631060.285966) can0 1EF#880000000000035E
(1554631060.285966) can0 1F2#0000000000000C96
(1554631060.285969) can0 1F7#000000BA061E0000
(1554631060.287325) can0 2FA#000F0500
(1554631060.287326) can0 1E360039#05
(1554631060.287326) can0 0FF#0020147E79000F07
(1554631060.288629) can0 1E360043#07
(1554631060.289699) can0 100#500A014020000025
(1554631060.289700) can0 41A#C14700A8AED660
(1554631060.289701) can0 0DE#1BF997D00F86
(1554631060.290822) can0 0FE#8017FF8000320906
(1554631060.290823) can0 101#000003441FC00926
(1554631060.290824) can0 103#000003E800000936
(1554631060.290824) can0 1F5#00003F0000
(1554631060.290825) can0 1F0#001FE00000000000
(1554631060.293970) can0 0FB#0019201401000077
(1554631060.293971) can0 0F4#1A90804000001015
(1554631060.295121) can0 0FA#8C200001380800DB
(1554631060.295122) can0 7D0#00
(1554631060.295123) can0 0EE#0000000000000AD8
(1554631060.295123) can0 116#01000000000009A2
(1554631060.295124) can0 0FC#0D48C00218000039
(1554631060.296206) can0 0F0#FFC00084BFF80298
(1554631060.296207) can0 104#0000000600000259
(1554631060.296207) can0 15C#3200010000000BC3
(1554631060.296208) can0 1F4#000007C000000848
(1554631060.296208) can0 1FA#4F6CC40000000000
(1554631060.297473) can0 41B#4320000000E80000
(1554631060.297474) can0 0FF#0020147E790000BC
(1554631060.298715) can0 1F8#40FF8000000007AD
(1554631060.298716) can0 256#0800007FC4420000
(1554631060.299568) can0 100#500A014020000138
(1554631060.299569) can0 0FE#7FE7FE8000320A72
(1554631060.299570) can0 0DE#1BF997D0003D
(1554631060.300772) can0 101#000003441FC00A01
(1554631060.300772) can0 103#000003E800000A11
(1554631060.300773) can0 1F1#FF00000001000DF1
(1554631060.300774) can0 2EE#81800000
(1554631060.300774) can0 41E#FFFDFFFEFF0000C0
(1554631060.301969) can0 420#FF6FF6FF6FF60000
(1554631060.301969) can0 1E360016#05
(1554631060.303577) can0 0FB#001920140100016A
(1554631060.303578) can0 0F4#1A90804000001108
(1554631060.303579) can0 2EF#0F15000000000000
(1554631060.304895) can0 0FA#8C2000014008009F
(1554631060.304896) can0 0EE#0000000000000BC5
(1554631060.304896) can0 116#0100000000000A85
(1554631060.304897) can0 0FC#0D60C00218000106
(1554631060.305993) can0 1EF#880000000000040D
(1554631060.305993) can0 0F0#FFC00084BFF80385
(1554631060.305994) can0 104#0000000600000344
(1554631060.305995) can0 1F2#0000000000000D8B
(1554631060.305995) can0 1F7#000000BA06200000
(1554631060.307144) can0 2FA#0000BE00
(1554631060.307145) can0 418#00000F4A
(1554631060.307145) can0 0FF#0020147E7940014B
(1554631060.309565) can0 100#500A01402000021F
(1554631060.309566) can0 0FE#8017FE8000320B56
(1554631060.309567) can0 0DE#1BF997D00120
(1554631060.311002) can0 101#000003441FC00B1C
(1554631060.311003) can0 103#000003E800000B0C
(1554631060.311003) can0 1F5#00003F0000
(1554631060.311004) can0 5A5#0000000000000000
(1554631060.312050) can0 1F0#001FE00000000000
(1554631060.313824) can0 0FB#0018A01401000228
(1554631060.313825) can0 0F4#1A9080400000122F
(1554631060.315093) can0 0FA#8C20000148080093
(1554631060.315094) can0 7D0#00
(1554631060.315095) can0 0EE#0000000000000C96
(1554631060.315095) can0 116#0100000000000B98
(1554631060.315096) can0 0FC#0D60C00218000221
(1554631060.315994) can0 0F0#FFC00084BFF804D6
(1554631060.315995) can0 104#0000000600000417
(1554631060.315996) can0 1F4#000007C000000955
(1554631060.315996) can0 1FA#4F6CC40000000000
(1554631060.317566) can0 0FF#0020148079400257
(1554631060.317567) can0 1F8#40FF800000000816
(1554631060.319803) can0 2ED#73000000001AB000
(1554631060.319804) can0 100#5002004000000352
(1554631060.319805) can0 0FE#8007FD8000320CAF
(1554631060.319805) can0 0DE#1BF997D00207
(1554631060.320978) can0 101#000003441FC00C4F
(1554631060.320979) can0 103#000003E800000C5F
(1554631060.320979) can0 1F1#FF00000001000ED6
(1554631060.323981) can0 0FB#0018A01401000335
(1554631060.323982) can0 0F4#1A908000000013A6
(1554631060.325063) can0 0FA#8C20000150080087
(1554631060.325064) can0 2EC#0000000000000000
(1554631060.325064) can0 0EE#0000000000000D8B
(1554631060.325065) can0 116#0100000000000CCB
(1554631060.325065) can0 0FC#0D60C0021800033C
(1554631060.326312) can0 0F0#FFC00084BFF805CB
(1554631060.326313) can0 104#000000060000050A
(1554631060.326314) can0 1EF#8800000000000510
(1554631060.326314) can0 1F2#0000000000000EAC
(1554631060.326315) can0 1F7#000000BA06220000
(1554631060.327396) can0 2FA#0001A300
(1554631060.327397) can0 412#0F00053240
(1554631060.327398) can0 0FF#002014807940034A
(1554631060.329975) can0 100#5002004000000401
(1554631060.329976) can0 0FE#7FB8008000320D25
(1554631060.329977) can0 0DE#1BF997D0031A
(1554631060.330915) can0 101#000003441FC00D52
(1554631060.330916) can0 103#000003E800000D42
(1554631060.330916) can0 1F5#00003F0000
(1554631060.330917) can0 1F0#001FE00000000000
(1554631060.332705) can0 257#001E30518C400000
(1554631060.332706) can0 190#001000000000074D
(1554631060.333681) can0 0FB#0018A01401000466
(1554631060.333682) can0 0F4#1A908000000014F5
(1554631060.335213) can0 0FA#8C2000015808008B
(1554631060.335214) can0 7D0#00
(1554631060.335215) can0 0EE#0000000000000EAC
(1554631060.335215) can0 116#0100000000000DD6
(1554631060.335216) can0 0FC#0D60C0021800046F
(1554631060.336221) can0 0F0#FFC00084BFF806EC
(1554631060.336222) can0 104#000000060000062D
(1554631060.336222) can0 1F4#000007C000000A72
(1554631060.336223) can0 1FA#4F6CC40000000000
(1554631060.337541) can0 0FF#0020148079400419
(1554631060.337542) can0 1F8#40FF80000000090B
(1554631060.339571) can0 100#500200400000051C
(1554631060.339572) can0 0FE#7FE8028000320E92
(1554631060.339572) can0 0DE#1BF997D00449
(1554631060.340902) can0 101#000003441FC00E75
(1554631060.340903) can0 103#000003E800000E65
(1554631060.340904) can0 1F1#FF00000001000FCB
(1554631060.340905) can0 416#0235353400000000
(1554631060.343915) can0 0FB#0018A0040100055E
(1554631060.343916) can0 0F4#1A908000000015E8
(1554631060.345176) can0 0FA#8C200001600800AF
(1554631060.345177) can0 0EE#0000000000000FB1
(1554631060.345177) can0 116#0100000000000EF1
(1554631060.345178) can0 0FC#0D40C0021800055A
(1554631060.346233) can0 0F0#FFC00084BFF807F1
(1554631060.346234) can0 104#0000000600000730
(1554631060.346234) can0 1EF#8800000000000637
(1554631060.346235) can0 1F2#0000000000000FB1
(1554631060.346235) can0 1F7#000000BA06220000
(1554631060.347393) can0 2FA#00028400
(1554631060.347394) can0 0FF#00201480790005EE
(1554631060.349526) can0 100#500200400000063B
(1554631060.349527) can0 0FE#8047FF8000320F0C
(1554631060.349528) can0 0DE#1BF997D00554
(1554631060.350869) can0 101#000003441FC00F68
(1554631060.350870) can0 103#000003E800000F78
(1554631060.350870) can0 1F5#00003F0000
(1554631060.350871) can0 1F0#001FE00000000000
(1554631060.353833) can0 0FB#0018A00401000679
(1554631060.353834) can0 0F4#1A9080400000165B
(1554631060.353834) can0 2EF#0F15000000000000
(1554631060.355186) can0 0FA#8C200001680800A3
(1554631060.355186) can0 7D0#00
(1554631060.355187) can0 0EE#000000000000000A
(1554631060.355188) can0 116#0100000000000FEC
(1554631060.355188) can0 0FC#0D40C0021800067D
(1554631060.356023) can0 0F0#FFC00084BFF8084A
(1554631060.356024) can0 104#000000060000088B
(1554631060.356024) can0 1F4#000007C000000B6F
(1554631060.356025) can0 1FA#4F6CC40000000000
(1554631060.357843) can0 0FF#00201480790006C9
(1554631060.357844) can0 1F8#40FF800000000A2C
(1554631060.359223) can0 259#0000009030000000
(1554631060.359224) can0 100#500A014020000776
(1554631060.359224) can0 417#C30008E000000000
(1554631060.360298) can0 0FE#7FF7FE80003200B4
(1554631060.360299) can0 0DE#1BF997D00673
(1554631060.360300) can0 101#000003441FC000D3
(1554631060.360300) can0 103#000003E8000000C3
(1554631060.360301) can0 1F1#FF00000001000070
(1554631060.361751) can0 419#8B00000C00000000
(1554631060.363930) can0 0FB#0018A00401000764
(1554631060.363931) can0 0F4#1A90804000001746
(1554631060.364981) can0 0FA#8C200001700800B7
(1554631060.364982) can0 0EE#0000000000000117
(1554631060.364983) can0 116#0100000000000057
(1554631060.364983) can0 0FC#0D40C00218000760
(1554631060.366244) can0 1EF#880000000000072A
(1554631060.366245) can0 0F0#FFC00084BFF80957
(1554631060.366245) can0 104#0000000600000996
(1554631060.366246) can0 1F2#000000000000000A
(1554631060.366246) can0 1F7#000000BA06220000
(1554631060.367368) can0 2FA#00039900
(1554631060.367369) can0 0FF#00201480790007D4
(1554631060.369814) can0 2ED#73000000001AB000
(1554631060.369815) can0 100#500A0140200008CD
(1554631060.369815) can0 0FE#7FB80180003201D3
(1554631060.369816) can0 0DE#1BF997D0076E
(1554631060.370959) can0 101#000003441FC001CE
(1554631060.370960) can0 103#000003E8000001DE
(1554631060.370960) can0 1F5#00003F0000
(1554631060.370961) can0 1F0#001FE00000000000
(1554631060.373986) can0 0FB#0018A004010008DF
(1554631060.373987) can0 0F4#1A908040000018FD
(1554631060.375153) can0 0FA#8C200001780800BB
(1554631060.375154) can0 2EC#0000000000000000
(1554631060.375154) can0 0EE#0000000000000230
(1554631060.375155) can0 0FC#0D40C002180008DB
(1554631060.375155) can0 116#010000000000014A
(1554631060.376384) can0 0F0#FFC00084BFF80A70
(1554631060.376385) can0 104#0000000600000AB1
(1554631060.376385) can0 1F4#000007C000000C3C
(1554631060.376386) can0 1FA#4F6CC40000000000
(1554631060.376386) can0 7D0#00
(1554631060.377745) can0 736#0E323331CD000000
(1554631060.377746) can0 0FF#002014807900086F
(1554631060.377747) can0 1F8#40FF800000000B31
(1554631060.379875) can0 100#500A0140200009D0
(1554631060.379876) can0 0FE#7FD801800032028C
(1554631060.379877) can0 0DE#1BF997D008D5
(1554631060.380974) can0 101#000003441FC002E9
(1554631060.380975) can0 103#000003E8000002F9
(1554631060.380976) can0 1F1#FF0000000100016D
(1554631060.380976) can0 5E0#00438900000006E0
(1554631060.382819) can0 5A7#200000000000088D
(1554631060.382820) can0 190#00100000000008F6
(1554631060.383661) can0 0FB#0018A014010009E7
(1554631060.383662) can0 0F4#1A908040000019E0
(1554631060.385162) can0 0FA#8C200001000800FF
(1554631060.385163) can0 0EE#000000000000032D
(1554631060.385164) can0 116#010000000000026D
(1554631060.385167) can0 0FC#0D40C002180009C6
(1554631060.386238) can0 0F0#FFC00084BFF80B6D
(1554631060.386239) can0 104#0000000600000BAC
(1554631060.386240) can0 1EF#8800000000000891
(1554631060.386241) can0 1F2#0000000000000117
(1554631060.386241) can0 1F7#000000BA061E0000
(1554631060.387399) can0 2FA#0004CA00
(1554631060.387400) can0 0FF#0020148079000972
(1554631060.389974) can0 100#500A014020000AF7
(1554631060.389975) can0 41A#C14700A8AE6660
(1554631060.389975) can0 0DE#1BF997D009C8
(1554631060.390769) can0 0FE#7FE80080003203C7
(1554631060.390770) can0 101#000003441FC003F4
(1554631060.390770) can0 103#000003E8000003E4
(1554631060.390771) can0 1F5#00003F0000
(1554631060.390772) can0 1F0#001FE00000000000
(1554631060.392105) can0 545#6817460780120000
(1554631060.393873) can0 0FB#0018A01401000AC0
(1554631060.393874) can0 0F4#1A90804000001AC7
(1554631060.395178) can0 0FA#8C200001080800F3
(1554631060.395179) can0 7D0#00
(1554631060.395179) can0 0EE#000000000000047E
(1554631060.395180) can0 116#0100000000000370
(1554631060.395181) can0 0FC#0D40C00218000AE1
(1554631060.396229) can0 0F0#FFC00084BFF80C3E
(1554631060.396230) can0 104#0000000600000CFF
(1554631060.396231) can0 15C#3200010000000C90
(1554631060.396231) can0 1F4#000007C000000D21
(1554631060.396232) can0 1FA#4F6CC40000000000
(1554631060.397491) can0 41B#4320000000E80000
(1554631060.397492) can0 0FF#0020148079000A55
(1554631060.398720) can0 1F8#40FF800000000C62
(1554631060.398721) can0 256#0800007FC4420000
(1554631060.399764) can0 100#500A014020000BEA
(1554631060.399764) can0 2EE#81800000
(1554631060.399765) can0 41E#FFFDFFFEFF0000C0
(1554631060.399766) can0 0DE#1BF997D00AEF
(1554631060.400680) can0 0FE#7FB80080003204D0
(1554631060.400682) can0 101#000003441FC004A7
(1554631060.400682) can0 103#000003E8000004B7
(1554631060.400683) can0 1F1#FF0000000100024A
(1554631060.400683) can0 420#FF6FF6FF6FF60000
(1554631060.403983) can0 0FB#0018A01401000BDD
(1554631060.403984) can0 0F4#1A90804000001BDA
(1554631060.403985) can0 2EF#0F15000000000000
(1554631060.405038) can0 0FA#8C200001100800E7
(1554631060.405039) can0 0EE#0000000000000563
(1554631060.405040) can0 116#0100000000000423
(1554631060.405041) can0 0FC#0D40C00218000BFC
(1554631060.405996) can0 0F0#FFC00084BFF80D23
(1554631060.405997) can0 104#0000000600000DE2
(1554631060.405998) can0 1EF#880000000000098C
(1554631060.405998) can0 1F2#0000000000000230
(1554631060.405999) can0 1F7#000000BA061E0000
(1554631060.407147) can0 2FA#0005D700
(1554631060.407148) can0 418#000000F1
(1554631060.407149) can0 0FF#0020148079000B48
(1554631060.409577) can0 100#500A014020000CB9
(1554631060.409578) can0 0FE#80080180003205CE
(1554631060.409578) can0 0DE#1BF997D00BF2
(1554631060.410632) can0 101#000003441FC005BA
(1554631060.410633) can0 103#000003E8000005AA
(1554631060.410633) can0 1F5#00003F0000
(1554631060.410634) can0 1F0#001FE00000000000
(1554631060.413578) can0 0FB#0019201401000CEB
(1554631060.413579) can0 0F4#1A90800000001C1D
(1554631060.415179) can0 0FA#8C200001180800EB
(1554631060.415180) can0 7D0#00
(1554631060.415180) can0 0EE#0000000000000644
(1554631060.415181) can0 116#010000000000053E
(1554631060.415181) can0 0FC#0D4CC00218000CA0
(1554631060.416100) can0 0F0#FFC00084BFF80E04
(1554631060.416101) can0 104#0000000600000EC5
(1554631060.416104) can0 1F4#000007C000000E06
(1554631060.416105) can0 1FA#4F6CC40000000000
(1554631060.417541) can0 0FF#0020147E79000C20
(1554631060.417542) can0 1F8#40FF800000000D7F
(1554631060.419710) can0 2ED#73000000001AB000
(1554631060.419711) can0 100#5002004000000DF4
(1554631060.419711) can0 0FE#80580180003206AD
(1554631060.419712) can0 0DE#1BF997D00CA1
(1554631060.421000) can0 101#000003441FC0069D
(1554631060.421001) can0 103#000003E80000068D
(1554631060.421002) can0 1F1#FF00000001000357
(1554631060.421002) can0 73E#02008400
(1554631060.423970) can0 0FB#0019201401000DF6
(1554631060.423971) can0 0F4#1A90800000001D00
(1554631060.425193) can0 0FA#8C200001200800CF
(1554631060.425194) can0 2EC#0000000000000000
(1554631060.425195) can0 0EE#0000000000000759
(1554631060.425195) can0 0FC#0D4CC00218000DBD
(1554631060.425196) can0 116#0100000000000619
(1554631060.426374) can0 0F0#FFC00084BFF80F19
(1554631060.426375) can0 104#0000000600000FD8
(1554631060.426375) can0 1EF#8800000000000AAB
(1554631060.426376) can0 1F2#000000000000032D
(1554631060.426377) can0 1F7#000000BA061E0000
(1554631060.427552) can0 2FA#0006F000
(1554631060.427553) can0 412#0F00053240
(1554631060.427554) can0 0FF#0020147E79000D3D
(1554631060.427554) can0 5A8#B000207686800771
(1554631060.429533) can0 73A#032016022016
(1554631060.429534) can0 100#5002004000000ED3
(1554631060.430494) can0 0FE#8017FE80003207CA
(1554631060.430495) can0 0DE#1BF997D00DBC
(1554631060.430495) can0 101#000003441FC00780
(1554631060.430496) can0 103#000003E800000790
(1554631060.430497) can0 1F5#00003F0000
(1554631060.431794) can0 1F0#001FE00000000000
(1554631060.431796) can0 257#001E30518C400000
(1554631060.433314) can0 190#00100000000009EB
(1554631060.433315) can0 0FB#0019201401000ED1
(1554631060.433316) can0 0F4#1A90800000001E27
(1554631060.435310) can0 0FA#8C200001280800C3
(1554631060.435311) can0 7D0#00
(1554631060.435312) can0 0EE#00000000000008E2
(1554631060.435313) can0 116#0100000000000704
(1554631060.435313) can0 0FC#0D4CC00218000E9A
(1554631060.436231) can0 0F0#FFC00084BFF800A2
(1554631060.436232) can0 104#0000000600000063
(1554631060.436233) can0 1F4#000007C000000F1B
(1554631060.436233) can0 1FA#4F6CC40000000000
(1554631060.437784) can0 0FF#0020147E79000E1A
(1554631060.437785) can0 1F8#40FF800000000E58
(1554631060.439939) can0 100#5002004000000FCE
(1554631060.439940) can0 0FE#7FB7FE800032080C
(1554631060.439940) can0 0DE#1BF997D00E9B
(1554631060.440955) can0 101#000003441FC0083B
(1554631060.440956) can0 103#000003E80000082B
(1554631060.440957) can0 1F1#FF00000001000404
(1554631060.440957) can0 416#0031433442553030
(1554631060.443867) can0 0FB#0019201401000FCC
(1554631060.443868) can0 0F4#1A90800000001F3A
(1554631060.445214) can0 0FA#8C200001300800D7
(1554631060.445215) can0 0EE#00000000000009FF
(1554631060.445215) can0 116#01000000000008BF
(1554631060.445216) can0 0FC#0D4CC00218000F87
(1554631060.446198) can0 0F0#FFC00084BFF801BF
(1554631060.446199) can0 104#000000060000017E
(1554631060.446200) can0 1EF#8800000000000BB6
(1554631060.446200) can0 1F2#000000000000047E
(1554631060.446201) can0 1F7#000000BA06220000
(1554631060.447151) can0 2FA#0007ED00
(1554631060.447152) can0 0FF#0020147E79000F07
(1554631060.449577) can0 100#5002004000000075
(1554631060.449578) can0 0FE#7FE7FF800032093F
(1554631060.449581) can0 0DE#1BF997D00F86
(1554631060.450698) can0 101#000003441FC00926
(1554631060.450699) can0 103#000003E800000936
(1554631060.450700) can0 1F5#00003F0000
(1554631060.450700) can0 4B1#05C0000CA0000000
(1554631060.450701) can0 1F0#001FE00000000000
(1554631060.453575) can0 0FB#0018A00401000037
(1554631060.453576) can0 0F4#1A90800000001081
(1554631060.453576) can0 2EF#0F15000000000000
(1554631060.454947) can0 0FA#8C200001380800DB
(1554631060.454948) can0 7D0#00
(1554631060.454949) can0 0EE#0000000000000AD8
(1554631060.454949) can0 116#01000000000009A2
(1554631060.454950) can0 0FC#0D5CC00218000028
(1554631060.456311) can0 0F0#FFC00084BFF80298
(1554631060.456312) can0 104#0000000600000259
(1554631060.456313) can0 1F4#000007C0000000A0
(1554631060.456313) can0 1FA#4F6CC40000000000
(1554631060.457839) can0 0FF#0020148079000087
(1554631060.457840) can0 1F8#40FF800000000F45
(1554631060.459543) can0 259#0000009030000000
(1554631060.459544) can0 100#5002004000000168
(1554631060.459544) can0 417#C30008E000000000
(1554631060.460519) can0 0FE#8018008000320A0B
(1554631060.460520) can0 0DE#1BF997D0003D
(1554631060.460521) can0 101#000003441FC00A01
(1554631060.460521) can0 103#000003E800000A11
(1554631060.460522) can0 1F1#FF00000001000519
(1554631060.461714) can0 419#8A00000C00000000
(1554631060.463582) can0 0FB#0018A0040100012A
(1554631060.463583) can0 0F4#1A9080000000119C
(1554631060.465110) can0 0FA#8C2000014008009F
(1554631060.465111) can0 0EE#0000000000000BC5
(1554631060.465112) can0 116#0100000000000A85
(1554631060.465113) can0 0FC#0D5CC00218000135
(1554631060.466188) can0 0F0#FFC00084BFF80385
(1554631060.466189) can0 104#0000000600000344
(1554631060.466189) can0 1EF#8800000000000CE5
(1554631060.466190) can0 1F2#0000000000000563
(1554631060.466191) can0 1F7#000000BA06220000
(1554631060.467358) can0 2FA#00085600
(1554631060.467359) can0 0FF#002014807900019A
(1554631060.469791) can0 2ED#73000000001AB000
(1554631060.469792) can0 100#500200400000024F
(1554631060.469793) can0 0FE#7FD8018000320B79
(1554631060.469793) can0 0DE#1BF997D00120
(1554631060.470962) can0 101#000003441FC00B1C
(1554631060.470963) can0 103#000003E800000B0C
(1554631060.470963) can0 1F5#00003F0000
(1554631060.470964) can0 1F0#001FE00000000000
(1554631060.473762) can0 0FB#0018A0040100020D
(1554631060.473762) can0 0F4#1A908000000012BB
(1554631060.475260) can0 0FA#8C20000148080093
(1554631060.475261) can0 2EC#0000000000000000
(1554631060.475262) can0 0EE#0000000000000C96
(1554631060.475262) can0 0FC#0D5CC00218000212
(1554631060.475263) can0 116#0100000000000B98
(1554631060.476396) can0 0F0#FFC00084BFF804D6
(1554631060.476396) can0 104#0000000600000417
(1554631060.476397) can0 1F4#000007C0000001BD
(1554631060.476398) can0 1FA#4F6CC40000000000
(1554631060.476398) can0 7D0#00
(1554631060.477825) can0 736#0E323331CD000000
(1554631060.477826) can0 0FF#00201480790002BD
(1554631060.477826) can0 1F8#40FF8000000000FE
(1554631060.479577) can0 100#5002004000000352
(1554631060.479578) can0 0FE#8018008000320C45
(1554631060.479578) can0 0DE#1BF997D00207
(1554631060.481037) can0 101#000003441FC00C4F
(1554631060.481038) can0 103#000003E800000C5F
(1554631060.481039) can0 1F1#FF0000000100063E
(1554631060.483383) can0 190#0010000000000ACC
(1554631060.483384) can0 0FB#0018A00401000310
(1554631060.483388) can0 0F4#1A908000000013A6
(1554631060.485171) can0 0FA#8C20000150080087
(1554631060.485172) can0 0EE#0000000000000D8B
(1554631060.485172) can0 116#0100000000000CCB
(1554631060.485173) can0 0FC#0D54C00218000305
(1554631060.486204) can0 0F0#FFC00084BFF805CB
(1554631060.486205) can0 104#000000060000050A
(1554631060.486206) can0 1EF#8800000000000DF8
(1554631060.486206) can0 1F2#0000000000000644
(1554631060.486207) can0 1F7#000000BA06220000
(1554631060.487379) can0 2FA#00094B00
(1554631060.487380) can0 0FF#00201480790003A0
(1554631060.489975) can0 100#5002004000000401
(1554631060.489976) can0 0FE#8057FE8000320D48
(1554631060.489977) can0 0DE#1BF997D0031A
(1554631060.490925) can0 101#000003441FC00D52
(1554631060.490926) can0 103#000003E800000D42
(1554631060.490927) can0 1F5#00003F0000
(1554631060.490927) can0 41A#C14700A8AF0660
(1554631060.490928) can0 1F0#001FE00000000000
(1554631060.493978) can0 0FB#0018A00401000443
(1554631060.493979) can0 0F4#1A908000000014F5
(1554631060.495217) can0 0FA#8C2000015808008B
(1554631060.495218) can0 7D0#00
(1554631060.495219) can0 0EE#0000000000000EAC
(1554631060.495220) can0 116#0100000000000DD6
(1554631060.495220) can0 0FC#0D54C00218000456
(1554631060.496258) can0 0F0#FFC00084BFF806EC
(1554631060.496259) can0 104#000000060000062D
(1554631060.496259) can0 15C#3200010000000D8D
(1554631060.496260) can0 1F4#000007C00000029A
(1554631060.496260) can0 1FA#4F6CC40000000000
(1554631060.497520) can0 41B#42A0000000E80000
(1554631060.497521) can0 0FF#00201480790004F3
(1554631060.498592) can0 1F8#40FF8000000001E3
(1554631060.498593) can0 256#0800007FC4420000
(1554631060.499580) can0 100#500200400000051C
(1554631060.499581) can0 0FE#8007FE8000320E2B
(1554631060.499581) can0 0DE#1BF997D00449
(1554631060.500779) can0 101#000003441FC00E75
(1554631060.500780) can0 103#000003E800000E65
(1554631060.500780) can0 1F1#FF00000001000723
(1554631060.500781) can0 2EE#81C00000
(1554631060.500781) can0 41E#FFFDFFFEFF0000C0
(1554631060.501950) can0 420#FF6FF6FF6FF60000
(1554631060.503907) can0 0FB#0018A0040100055E
(1554631060.503908) can0 0F4#1A908000000015E8
(1554631060.503909) can0 2EF#0F15000000000000
(1554631060.505202) can0 0FA#8C200001600800AF
(1554631060.505203) can0 0EE#0000000000000FB1
(1554631060.505204) can0 116#0100000000000EF1
(1554631060.505204) can0 0FC#0D54C0021800054B
(1554631060.506172) can0 0F0#FFC00084BFF807F1
(1554631060.506173) can0 104#0000000600000730
