(1554630853.410493) can0 0DE#1BF997D00AEF
(1554630853.410494) can0 2ED#7500000000000000
(1554630853.410494) can0 100#4EE1DC3B8000014F
(1554630853.410495) can0 15C#3200010000000642
(1554630853.412432) can0 0FE#7FF7FF800032092B
(1554630853.412432) can0 101#000000041FC0090C
(1554630853.412433) can0 103#000003E800000936
(1554630853.412433) can0 1F5#00003F0000
(1554630853.414281) can0 0F0#FFC00084BFF80298
(1554630853.414282) can0 104#0000000600000259
(1554630853.414283) can0 0FB#000C1DC4000001B1
(1554630853.414283) can0 0F4#17E8770000001184
(1554630853.416380) can0 0FA#40200000680800FA
(1554630853.416380) can0 2EC#0000000000000000
(1554630853.416381) can0 7D0#00
(1554630853.416382) can0 0FC#0000800018000120
(1554630853.416382) can0 412#0000023200
(1554630853.417412) can0 0EE#0000000000000AD8
(1554630853.417413) can0 116#01000000000009A2
(1554630853.417413) can0 1FA#197A240000000000
(1554630853.418855) can0 0FF#001DC3B6770001B9
(1554630853.420579) can0 0DE#1BF997D00BF2
(1554630853.420580) can0 100#4EE1DC3B80000268
(1554630853.422381) can0 0FE#7FC7FF8000320A30
(1554630853.422382) can0 101#000000041FC00A2B
(1554630853.422384) can0 103#000003E800000A11
(1554630853.422385) can0 1F0#001FE00000000000
(1554630853.422386) can0 1F1#FF00000001000519
(1554630853.424357) can0 0F0#FFC00084BFF80385
(1554630853.424358) can0 104#0000000600000344
(1554630853.424358) can0 1F7#000000B800000000
(1554630853.424359) can0 0F4#17E87700000012A3
(1554630853.424359) can0 0FB#000C1DC400000296
(1554630853.425577) can0 5A8#B00020568680073B
(1554630853.425578) can0 0FA#40200000700800EE
(1554630853.426757) can0 1EF#8800000000000CE5
(1554630853.426758) can0 0FC#0000800018000207
(1554630853.426759) can0 1F4#000003C000000108
(1554630853.426759) can0 0EE#0000000000000BC5
(1554630853.426760) can0 116#0100000000000A85
(1554630853.428007) can0 1F2#0000000000000563
(1554630853.428008) can0 1F8#40FF800000000F45
(1554630853.428008) can0 2FA#000B7100
(1554630853.428009) can0 0FF#001DC3B67700029E
(1554630853.430482) can0 0DE#1BF997D00CA1
(1554630853.430482) can0 257#001E30718C400000
(1554630853.430482) can0 100#4EE1DC3B80000375
(1554630853.431726) can0 41A#A6C800A88EC660
(1554630853.431726) can0 73A#031716022016
(1554630853.431727) can0 0FE#7FD7FE8000320B53
(1554630853.431727) can0 101#000000041FC00B36
(1554630853.432901) can0 103#000003E800000B0C
(1554630853.432901) can0 1F5#00003F0000
(1554630853.434276) can0 0F0#FFC00084BFF804D6
(1554630853.434276) can0 104#0000000600000417
(1554630853.434276) can0 0FB#000C1DC40000038B
(1554630853.434276) can0 0F4#17E87700000013BE
(1554630853.436380) can0 0FA#40200000780800E2
(1554630853.436381) can0 7D0#00
(1554630853.436381) can0 0FC#000080001800031A
(1554630853.437427) can0 0EE#0000000000000C96
(1554630853.437427) can0 116#0100000000000B98
(1554630853.437428) can0 1FA#197A240000000000
(1554630853.438853) can0 0FF#001DC3B677000383
(1554630853.440575) can0 0DE#1BF997D00DBC
(1554630853.440575) can0 100#4EE1DC3B80000426
(1554630853.441710) can0 2EE#8A600000
(1554630853.441711) can0 41E#FFFDFFFEFF0000C0
(1554630853.441711) can0 420#FF6FF6FF6FF60000
(1554630853.441711) can0 0FE#8007FD8000320CAF
(1554630853.442725) can0 101#000000041FC00C65
(1554630853.442725) can0 103#000003E800000C5F
(1554630853.442726) can0 1F0#001FE00000000000
(1554630853.442726) can0 1F1#FF0000000100063E
(1554630853.444254) can0 0F0#FFC00084BFF805CB
(1554630853.444254) can0 104#000000060000050A
(1554630853.444255) can0 1F7#000000B800000000
(1554630853.444255) can0 0F4#17E87700000014ED
(1554630853.444255) can0 0FB#000C1DC4000004D8
(1554630853.445489) can0 2EF#0F71000000000000
(1554630853.445489) can0 0FA#40200000000800A6
(1554630853.446777) can0 1EF#8800000000000DF8
(1554630853.446777) can0 0FC#0000800018000449
(1554630853.446778) can0 1F4#000003C00000022F
(1554630853.446778) can0 0EE#0000000000000D8B
(1554630853.446778) can0 116#0100000000000CCB
(1554630853.448006) can0 1F2#0000000000000644
(1554630853.448006) can0 1F8#40FF8000000000FE
(1554630853.448006) can0 2FA#000C2200
(1554630853.448006) can0 0FF#001DC3B6770004D0
(1554630853.450475) can0 0DE#1BF997D00E9B
(1554630853.450476) can0 100#4EE1DC3B8000053B
(1554630853.450476) can0 417#C30008A000000000
(1554630853.451701) can0 384#081DAA8800C00000
(1554630853.451701) can0 0FE#8007FE8000320D0C
(1554630853.451701) can0 101#000000041FC00D78
(1554630853.452951) can0 103#000003E800000D42
(1554630853.452951) can0 190#0010000000000D9F
(1554630853.452953) can0 1F5#00003F0000
(1554630853.454280) can0 0F0#FFC00084BFF806EC
(1554630853.454280) can0 104#000000060000062D
(1554630853.454281) can0 0FB#000C1DC4000005C5
(1554630853.454281) can0 0F4#17E87700000015F0
(1554630853.456325) can0 0FA#40200000080800AA
(1554630853.456325) can0 7D0#00
(1554630853.456325) can0 4AC#3CF34C00048000
(1554630853.456326) can0 0FC#0000800018000554
(1554630853.457457) can0 0EE#0000000000000EAC
(1554630853.457457) can0 116#0100000000000DD6
(1554630853.457458) can0 1FA#197A240000000000
(1554630853.458851) can0 0FF#001DC3B6770005CD
(1554630853.460570) can0 0DE#1BF997D00F86
(1554630853.460571) can0 2ED#7500000000000000
(1554630853.460572) can0 100#4EE1DC3B8000061C
(1554630853.462077) can0 259#0000009030000000
(1554630853.462078) can0 0FE#7FE7FF8000320E6C
(1554630853.462079) can0 101#000000041FC00E5F
(1554630853.462079) can0 103#000003E800000E65
(1554630853.463132) can0 1F0#001FE00000000000
(1554630853.463133) can0 1F1#FF00000001000723
(1554630853.464252) can0 0F0#FFC00084BFF807F1
(1554630853.464253) can0 104#0000000600000730
(1554630853.464253) can0 1F7#000000B800000000
(1554630853.464254) can0 0F4#17E87700000016D7
(1554630853.464254) can0 0FB#000C1DC4000006E2
(1554630853.466381) can0 0FA#40200000100800BE
(1554630853.466382) can0 2EC#0000000000000000
(1554630853.466382) can0 1EF#8800000000000EDF
(1554630853.466383) can0 0FC#0000800018000673
(1554630853.466384) can0 1F4#000003C000000332
(1554630853.467629) can0 0EE#0000000000000FB1
(1554630853.467629) can0 116#0100000000000EF1
(1554630853.467630) can0 1F2#0000000000000759
(1554630853.467630) can0 1F8#40FF8000000001E3
(1554630853.467631) can0 2FA#000D3F00
(1554630853.468853) can0 736#0832323CC1000000
(1554630853.468854) can0 0FF#001DC3B6770006EA
(1554630853.470477) can0 0DE#1BF997D0003D
(1554630853.470478) can0 100#4EE1DC3B80000701
(1554630853.472434) can0 0FE#7FD7FC8000320FF3
(1554630853.472434) can0 101#000000041FC00F42
(1554630853.472435) can0 103#000003E800000F78
(1554630853.472435) can0 1F5#00003F0000
(1554630853.474307) can0 0F0#FFC00084BFF8084A
(1554630853.474308) can0 104#000000060000088B
(1554630853.474309) can0 0FB#000C1DC4000007FF
(1554630853.474309) can0 0F4#17E87700000017CA
(1554630853.476440) can0 0FA#40200000180800B2
(1554630853.476441) can0 7D0#00
(1554630853.476441) can0 0FC#000080001800076E
(1554630853.477716) can0 0EE#000000000000000A
(1554630853.477717) can0 116#0100000000000FEC
(1554630853.477717) can0 1FA#197A240000000000
(1554630853.479168) can0 0FF#001DC3B6770007F7
(1554630853.480720) can0 0DE#1BF997D00120
(1554630853.480721) can0 100#4EE1DC3B800008BA
(1554630853.482139) can0 416#0130304850453836
(1554630853.482140) can0 0FE#7FC7FE8000320088
(1554630853.482141) can0 101#000000041FC000F9
(1554630853.483113) can0 103#000003E8000000C3
(1554630853.483114) can0 1F0#001FE00000000000
(1554630853.483114) can0 1F1#FF00000001000898
(1554630853.484619) can0 0F0#FFC00084BFF80957
(1554630853.484620) can0 104#0000000600000996
(1554630853.484621) can0 1F7#000000B800000000
(1554630853.484621) can0 0F4#17E8770000001871
(1554630853.484622) can0 0FB#000C1DC400000844
(1554630853.486788) can0 0FA#4020000020080096
(1554630853.486789) can0 1EF#8800000000000FC2
(1554630853.486789) can0 0FC#00008000180008D5
(1554630853.486790) can0 1F4#000003C000000461
(1554630853.487794) can0 0EE#0000000000000117
(1554630853.487795) can0 116#0100000000000057
(1554630853.487795) can0 1F2#00000000000008E2
(1554630853.487796) can0 1F8#40FF8000000002C4
(1554630853.487797) can0 2FA#000E1800
(1554630853.488700) can0 41B#2720000001600000
(1554630853.488701) can0 0FF#001DC3B67700084C
(1554630853.490790) can0 0DE#1BF997D00207
(1554630853.490791) can0 100#4EE1DC3B800009A7
(1554630853.492789) can0 0FE#7FD7FF80003201EB
(1554630853.492790) can0 101#000000041FC001E4
(1554630853.492791) can0 103#000003E8000001DE
(1554630853.492792) can0 1F5#00003F0000
(1554630853.494644) can0 0F0#FFC00084BFF80A70
(1554630853.494645) can0 104#0000000600000AB1
(1554630853.494646) can0 0FB#000C1DC400000959
(1554630853.494646) can0 0F4#17E877000000196C
(1554630853.495569) can0 2EF#0F71000000000000
(1554630853.496622) can0 0FA#402000002808009A
(1554630853.496623) can0 7D0#00
(1554630853.496624) can0 0FC#00008000180009C8
(1554630853.497673) can0 0EE#0000000000000230
(1554630853.497674) can0 116#010000000000014A
(1554630853.497675) can0 1FA#197A240000000000
(1554630853.499161) can0 0FF#001DC3B677000951
(1554630853.500814) can0 0DE#1BF997D0031A
(1554630853.500815) can0 100#4EE1DC3B80000A80
(1554630853.502141) can0 419#8A00000C00000000
(1554630853.502141) can0 256#0800007FC4420000
(1554630853.502142) can0 0FE#7FE7FF80003202F0
(1554630853.502143) can0 101#000000041FC002C3
(1554630853.503137) can0 103#000003E8000002F9
(1554630853.503138) can0 190#0010000000000EB8
(1554630853.503138) can0 1F0#001FE00000000000
(1554630853.503139) can0 1F1#FF00000001000985
(1554630853.504558) can0 0F0#FFC00084BFF80B6D
(1554630853.504559) can0 104#0000000600000BAC
(1554630853.504560) can0 1F7#000000B800000000
(1554630853.504561) can0 0F4#17E8770000001A4B
(1554630853.504561) can0 0FB#000C1DC400000A7E
(1554630853.506836) can0 0FA#402000003008008E
(1554630853.506837) can0 1EF#8800000000000079
(1554630853.506838) can0 0FC#0000800018000AEF
(1554630853.506839) can0 1F4#000003C00000057C
(1554630853.507784) can0 0EE#000000000000032D
(1554630853.507785) can0 116#010000000000026D
(1554630853.507786) can0 1F2#00000000000009FF
(1554630853.507786) can0 1F8#40FF8000000003D9
(1554630853.507787) can0 418#00000B3E
(1554630853.508803) can0 2FA#000F0500
(1554630853.508804) can0 4AF#0020000000000000
(1554630853.508805) can0 0FF#001DC3B677000A76
(1554630853.510894) can0 0DE#1BF997D00449
(1554630853.510895) can0 2ED#7500000000000000
(1554630853.510895) can0 100#4EE1DC3B80000B9D
(1554630853.510896) can0 15C#320001000000075F
(1554630853.512765) can0 0FE#7FE7FF80003203ED
(1554630853.512766) can0 101#000000041FC003DE
(1554630853.512767) can0 103#000003E8000003E4
(1554630853.512768) can0 1F5#00003F0000
(1554630853.514463) can0 0F0#FFC00084BFF80C3E
(1554630853.514464) can0 104#0000000600000CFF
(1554630853.514465) can0 0FB#000C1DC400000B63
(1554630853.514465) can0 0F4#17E8770000001B56
(1554630853.516768) can0 0FA#4020000038080082
(1554630853.516769) can0 2EC#0000000000000000
(1554630853.516770) can0 7D0#00
(1554630853.516770) can0 0FC#0000800018000BF2
(1554630853.516771) can0 412#0000023200
(1554630853.517647) can0 0EE#000000000000047E
(1554630853.517648) can0 116#0100000000000370
(1554630853.517648) can0 1FA#197A240000000000
(1554630853.519178) can0 0FF#001DC3B677000B6B
(1554630853.520828) can0 0DE#1BF997D00554
(1554630853.520829) can0 100#4EE1DC3B80000CCE
(1554630853.522755) can0 0FE#7FD80180003204C2
(1554630853.522755) can0 101#000000041FC0048D
(1554630853.522756) can0 103#000003E8000004B7
(1554630853.522757) can0 1F0#001FE00000000000
(1554630853.522757) can0 1F1#FF00000001000AA2
(1554630853.524634) can0 0F0#FFC00084BFF80D23
(1554630853.524635) can0 104#0000000600000DE2
(1554630853.524636) can0 1F7#000000B800000000
(1554630853.524636) can0 0F4#17E8770000001C05
(1554630853.524637) can0 0FB#000C1DC400000C30
(1554630853.526863) can0 0FA#40200000400800C6
(1554630853.526864) can0 1EF#8800000000000164
(1554630853.526864) can0 0FC#0000800018000CA1
(1554630853.526865) can0 1F4#000003C00000065B
(1554630853.527789) can0 0EE#0000000000000563
(1554630853.527790) can0 116#0100000000000423
(1554630853.527791) can0 1F2#0000000000000AD8
(1554630853.527792) can0 1F8#40FF80000000048A
(1554630853.527793) can0 2FA#0000BE00
(1554630853.529248) can0 0FF#001DC3B677000C38
(1554630853.530855) can0 0DE#1BF997D00673
(1554630853.530856) can0 100#4EE1DC3B80000DD3
(1554630853.530857) can0 257#001E30718C400000
(1554630853.532112) can0 41A#A6C800A88EC660
(1554630853.532113) can0 0FE#7FD80180003205DF
(1554630853.532113) can0 101#000000041FC00590
(1554630853.533278) can0 103#000003E8000005AA
(1554630853.533279) can0 1F5#00003F0000
(1554630853.534650) can0 0F0#FFC00084BFF80E04
(1554630853.534651) can0 104#0000000600000EC5
(1554630853.534651) can0 0FB#000C1DC400000D2D
(1554630853.534652) can0 0F4#17E8770000001D18
(1554630853.536834) can0 0FA#40200000480800CA
(1554630853.536835) can0 7D0#00
(1554630853.536836) can0 0FC#0000800018000DBC
(1554630853.537650) can0 0EE#0000000000000644
(1554630853.537651) can0 116#010000000000053E
(1554630853.537652) can0 1FA#197A240000000000
(1554630853.539272) can0 0FF#001DC3B677000D25
(1554630853.540917) can0 0DE#1BF997D0076E
(1554630853.540919) can0 100#4EE1DC3B80000EF4
(1554630853.542102) can0 2EE#8B200000
(1554630853.542103) can0 41E#FFFDFFFEFF0000C0
(1554630853.542104) can0 420#FF6FF6FF6FF60000
(1554630853.542105) can0 0FE#80080180003206E9
(1554630853.543096) can0 101#000000041FC006B7
(1554630853.543097) can0 103#000003E80000068D
(1554630853.543097) can0 1F0#001FE00000000000
(1554630853.543098) can0 1F1#FF00000001000BBF
(1554630853.544756) can0 0F0#FFC00084BFF80F19
(1554630853.544758) can0 104#0000000600000FD8
(1554630853.544758) can0 1F7#000000B800000000
(1554630853.544759) can0 0F4#17E8770000001E3F
(1554630853.544759) can0 0FB#000C1DC400000E0A
(1554630853.545810) can0 2EF#0F71000000000000
(1554630853.545811) can0 0FA#40200000500800DE
(1554630853.547153) can0 1EF#8800000000000243
(1554630853.547154) can0 0FC#0000800018000E9B
(1554630853.547155) can0 1F4#000003C000000746
(1554630853.547155) can0 0EE#0000000000000759
(1554630853.547156) can0 116#0100000000000619
(1554630853.548350) can0 1F2#0000000000000BC5
(1554630853.548351) can0 1F8#40FF800000000597
(1554630853.548352) can0 2FA#0001A300
(1554630853.548352) can0 0FF#001DC3B677000E02
(1554630853.550967) can0 0DE#1BF997D008D5
(1554630853.550968) can0 100#4EE1DC3B80000FE9
(1554630853.550969) can0 417#C30008A000000000
(1554630853.552829) can0 0FE#800800800032079E
(1554630853.552830) can0 101#000000041FC007AA
(1554630853.552831) can0 103#000003E800000790
(1554630853.552835) can0 190#0010000000000FA5
(1554630853.552835) can0 1F5#00003F0000
(1554630853.554746) can0 0F0#FFC00084BFF800A2
(1554630853.554747) can0 104#0000000600000063
(1554630853.554747) can0 0FB#000C1DC400000F17
(1554630853.554748) can0 0F4#17E8770000001F22
(1554630853.556666) can0 0FA#40200000580800D2
(1554630853.556667) can0 7D0#00
(1554630853.556668) can0 0FC#0000800018000F86
(1554630853.557686) can0 0EE#00000000000008E2
(1554630853.557687) can0 116#0100000000000704
(1554630853.557688) can0 1FA#197A240000000000
(1554630853.559280) can0 0FF#001DC3B677000F1F
(1554630853.560915) can0 0DE#1BF997D009C8
(1554630853.560916) can0 2ED#7500000000000000
(1554630853.560916) can0 100#4EE1DC3B80000052
(1554630853.562490) can0 259#0000009030000000
(1554630853.562491) can0 0FE#7FF800800032081C
(1554630853.562492) can0 101#000000041FC00811
(1554630853.562492) can0 103#000003E80000082B
(1554630853.563436) can0 1F0#001FE00000000000
(1554630853.563437) can0 1F1#FF00000001000CEC
(1554630853.564600) can0 0F0#FFC00084BFF801BF
(1554630853.564602) can0 104#000000060000017E
(1554630853.564602) can0 1F7#000000B800000000
(1554630853.564603) can0 0F4#17E8770000001099
(1554630853.564603) can0 0FB#000C1DC4000000AC
(1554630853.566877) can0 0FA#40200000600800F6
(1554630853.566878) can0 2EC#0000000000000000
(1554630853.566878) can0 0FC#000080001800003D
(1554630853.566879) can0 1EF#880000000000035E
(1554630853.566879) can0 1F4#000003C0000008FD
(1554630853.567986) can0 0EE#00000000000009FF
(1554630853.567987) can0 116#01000000000008BF
(1554630853.567988) can0 1F2#0000000000000C96
(1554630853.567988) can0 1F8#40FF8000000006B0
(1554630853.567989) can0 2FA#00028400
(1554630853.569207) can0 736#0832323CC1000000
(1554630853.569208) can0 0FF#001DC3B6770000A4
(1554630853.570846) can0 0DE#1BF997D00AEF
(1554630853.570847) can0 100#4EE1DC3B8000014F
(1554630853.572854) can0 0FE#8008008000320938
(1554630853.572855) can0 101#000000041FC0090C
(1554630853.572855) can0 103#000003E800000936
(1554630853.572856) can0 1F5#00003F0000
(1554630853.574762) can0 0F0#FFC00084BFF80298
(1554630853.574763) can0 104#0000000600000259
(1554630853.574764) can0 0FB#000C1DC4000001B1
(1554630853.574764) can0 0F4#17E8770000001184
(1554630853.576851) can0 0FA#40200000680800FA
(1554630853.576852) can0 7D0#00
(1554630853.576853) can0 0FC#0000800018000120
(1554630853.577644) can0 0EE#0000000000000AD8
(1554630853.577645) can0 116#01000000000009A2
(1554630853.577646) can0 1FA#193A240000000000
(1554630853.579274) can0 0FF#001DC3B6770001B9
(1554630853.580854) can0 0DE#1BF997D00BF2
(1554630853.580855) can0 100#4EE1DC3B80000268
(1554630853.582269) can0 416#0235353400000000
(1554630853.582270) can0 545#6817460780120000
(1554630853.582271) can0 0FE#8018008000320A0B
(1554630853.582271) can0 101#000000041FC00A2B
(1554630853.583211) can0 103#000003E800000A11
(1554630853.583212) can0 1F0#001FE00000000000
(1554630853.583213) can0 1F1#FF00000001000DF1
(1554630853.584647) can0 0F0#FFC00084BFF80385
(1554630853.584648) can0 104#0000000600000344
(1554630853.584648) can0 1F7#000000B800000000
(1554630853.584649) can0 0F4#17E87700000012A3
(1554630853.584649) can0 0FB#000C1DC400000296
(1554630853.586858) can0 0FA#40200000700800EE
(1554630853.586859) can0 1EF#880000000000040D
(1554630853.586860) can0 0FC#0000800018000207
(1554630853.586863) can0 1F4#000003C0000009E0
(1554630853.587786) can0 0EE#0000000000000BC5
(1554630853.587787) can0 116#0100000000000A85
(1554630853.587788) can0 1F2#0000000000000D8B
(1554630853.587788) can0 1F8#40FF8000000007AD
(1554630853.587789) can0 41B#2720000001600000
(1554630853.589005) can0 2FA#00039900
(1554630853.589006) can0 0FF#001DC3B67700029E
(1554630853.590960) can0 0DE#1BF997D00CA1
(1554630853.590961) can0 100#4EE1DC3B80000375
(1554630853.592832) can0 0FE#8028008000320B2A
(1554630853.592834) can0 101#000000041FC00B36
(1554630853.592834) can0 103#000003E800000B0C
(1554630853.592835) can0 1F5#00003F0000
(1554630853.594772) can0 0F0#FFC00084BFF804D6
(1554630853.594773) can0 104#0000000600000417
(1554630853.594774) can0 0FB#000C1DC40000038B
(1554630853.594774) can0 0F4#17E87700000013BE
(1554630853.595646) can0 2EF#0F71000000000000
(1554630853.596698) can0 0FA#40200000780800E2
(1554630853.596699) can0 7D0#00
(1554630853.596700) can0 0FC#000080001800031A
(1554630853.596701) can0 0EE#0000000000000C96
(1554630853.598039) can0 116#0100000000000B98
(1554630853.598040) can0 1FA#197A240000000000
(1554630853.599195) can0 0FF#001DC3B677000383
(1554630853.600869) can0 0DE#1BF997D00DBC
(1554630853.600870) can0 100#4EE1DC3B80000426
(1554630853.602261) can0 419#8B00000C00000000
(1554630853.602262) can0 256#0800007FC4420000
(1554630853.602263) can0 0FE#8018008000320C45
(1554630853.602263) can0 101#000000041FC00C65
(1554630853.602264) can0 103#000003E800000C5F
(1554630853.603478) can0 190#001000000000001E
(1554630853.603479) can0 1F0#001FE00000000000
(1554630853.603479) can0 1F1#FF00000001000ED6
(1554630853.604688) can0 0F0#FFC00084BFF805CB
(1554630853.604689) can0 104#000000060000050A
(1554630853.604690) can0 1F7#000000B800000000
(1554630853.604690) can0 0F4#17E87700000014ED
(1554630853.604691) can0 0FB#000C1DC4000004D8
(1554630853.606855) can0 0FA#40200000000800A6
(1554630853.606855) can0 1EF#8800000000000510
(1554630853.606856) can0 0FC#0000800018000449
(1554630853.606857) can0 1F4#000003C000000AC7
(1554630853.607791) can0 0EE#0000000000000D8B
(1554630853.607792) can0 116#0100000000000CCB
(1554630853.607792) can0 1F2#0000000000000EAC
(1554630853.607793) can0 1F8#40FF800000000816
(1554630853.607793) can0 418#00000C6D
(1554630853.608958) can0 2FA#0004CA00
(1554630853.608959) can0 0FF#001DC3B6770004D0
(1554630853.610888) can0 0DE#1BF997D00E9B
(1554630853.610889) can0 2ED#7500000000000000
(1554630853.610890) can0 100#4EE1DC3B8000053B
(1554630853.610890) can0 15C#32000100000008E4
(1554630853.612108) can0 73E#02008000
(1554630853.612109) can0 0FE#8017FF8000320D72
(1554630853.612109) can0 101#000000041FC00D78
(1554630853.613275) can0 103#000003E800000D42
(1554630853.613276) can0 1F5#00003F0000
(1554630853.614696) can0 0F0#FFC00084BFF806EC
(1554630853.614697) can0 104#000000060000062D
(1554630853.614697) can0 0FB#000C1DC4000005C5
(1554630853.614698) can0 0F4#17E87700000015F0
(1554630853.616807) can0 0FA#40200000080800AA
(1554630853.616808) can0 2EC#0000000000000000
(1554630853.616809) can0 7D0#00
(1554630853.616809) can0 0FC#0000800018000554
(1554630853.616810) can0 412#0000023200
(1554630853.617655) can0 0EE#0000000000000EAC
(1554630853.617656) can0 116#0100000000000DD6
(1554630853.617657) can0 1FA#193A240000000000
(1554630853.619274) can0 0FF#001DC3B6770005CD
(1554630853.620839) can0 0DE#1BF997D00F86
(1554630853.620840) can0 100#4EE1DC3B8000061C
(1554630853.622840) can0 0FE#8028018000320E29
(1554630853.622841) can0 101#000000041FC00E5F
(1554630853.622841) can0 103#000003E800000E65
(1554630853.622842) can0 1F0#001FE00000000000
(1554630853.622843) can0 1F1#FF00000001000FCB
(1554630853.624743) can0 0F0#FFC00084BFF807F1
(1554630853.624744) can0 104#0000000600000730
(1554630853.624744) can0 1F7#000000B800000000
(1554630853.624745) can0 0F4#17E87700000016D7
(1554630853.624746) can0 0FB#000C1DC4000006E2
(1554630853.626860) can0 0FA#40200000100800BE
(1554630853.626861) can0 1EF#8800000000000637
(1554630853.626861) can0 0FC#0000800018000673
(1554630853.626862) can0 1F4#000003C000000BDA
(1554630853.627786) can0 0EE#0000000000000FB1
(1554630853.627787) can0 116#0100000000000EF1
(1554630853.627788) can0 1F2#0000000000000FB1
(1554630853.627788) can0 1F8#40FF80000000090B
(1554630853.627789) can0 2FA#0005D700
(1554630853.629248) can0 0FF#001DC3B6770006EA
(1554630853.630854) can0 0DE#1BF997D0003D
(1554630853.630855) can0 100#4EE1DC3B80000701
(1554630853.630855) can0 15A#8000012C
(1554630853.630856) can0 257#001E30718C400000
(1554630853.631792) can0 73C#009FC00000000104
(1554630853.631792) can0 41A#A6C800A88EC660
(1554630853.631793) can0 0FE#8018018000320F08
(1554630853.633038) can0 101#000000041FC00F42
(1554630853.633039) can0 103#000003E800000F78
(1554630853.633040) can0 1F5#00003F0000
(1554630853.633040) can0 5E0#0043890000000B61
(1554630853.634731) can0 0F0#FFC00084BFF8084A
(1554630853.634732) can0 104#000000060000088B
(1554630853.634732) can0 0FB#000C1DC4000007FF
(1554630853.634733) can0 0F4#17E87700000017CA
(1554630853.636866) can0 0FA#40200000180800B2
(1554630853.636867) can0 7D0#00
(1554630853.636868) can0 0FC#000080001800076E
(1554630853.636868) can0 0EE#000000000000000A
(1554630853.638015) can0 116#0100000000000FEC
(1554630853.638016) can0 1FA#197A240000000000
(1554630853.639187) can0 0FF#001DC3B6770007F7
(1554630853.640874) can0 0DE#1BF997D00120
(1554630853.640875) can0 100#4EE1DC3B800008BA
(1554630853.642201) can0 2EE#8B200000
(1554630853.642202) can0 5AB#0000000000000000
(1554630853.642203) can0 41E#FFFDFFFEFF0000C0
(1554630853.642203) can0 0FE#80080180003200A7
(1554630853.642204) can0 101#000000041FC000F9
(1554630853.643400) can0 103#000003E8000000C3
(1554630853.643401) can0 1F0#001FE00000000000
(1554630853.643402) can0 1F1#FF00000001000070
(1554630853.643402) can0 420#FF6FF6FF6FF60000
(1554630853.643403) can0 5B0#0000000000000000
(1554630853.644634) can0 0F0#FFC00084BFF80957
(1554630853.644635) can0 104#0000000600000996
(1554630853.644635) can0 1F7#000000B800000000
(1554630853.644636) can0 0F4#17E8770000001871
(1554630853.644637) can0 0FB#000C1DC400000844
(1554630853.645832) can0 2EF#0F71000000000000
(1554630853.645833) can0 744#000003003FF000FF
(1554630853.645833) can0 7CA#8FB6
(1554630853.645834) can0 0FA#4020000020080096
(1554630853.647146) can0 1EF#880000000000072A
(1554630853.647147) can0 0FC#00008000180008D5
(1554630853.647147) can0 1F4#000003C000000C89
(1554630853.647148) can0 0EE#0000000000000117
(1554630853.647148) can0 116#0100000000000057
(1554630853.648352) can0 1F2#000000000000000A
(1554630853.648353) can0 1F8#40FF800000000A2C
(1554630853.648357) can0 2FA#0006F000
(1554630853.648358) can0 0FF#001DC3B67700084C
(1554630853.651025) can0 0DE#1BF997D00207
(1554630853.651026) can0 100#4EE1DC3B800009A7
(1554630853.651027) can0 417#C30008A000000000
(1554630853.652820) can0 0FE#80080080003201D0
(1554630853.652821) can0 101#000000041FC001E4
(1554630853.652822) can0 103#000003E8000001DE
(1554630853.652823) can0 190#0010000000000103
(1554630853.652823) can0 1F5#00003F0000
(1554630853.654773) can0 0F0#FFC00084BFF80A70
(1554630853.654774) can0 104#0000000600000AB1
(1554630853.654775) can0 0FB#000C1DC400000959
(1554630853.654775) can0 0F4#17E877000000196C
(1554630853.656852) can0 0FA#402000002808009A
(1554630853.656853) can0 7D0#00
(1554630853.656854) can0 0FC#00008000180009C8
(1554630853.656854) can0 0EE#0000000000000230
(1554630853.658024) can0 116#010000000000014A
(1554630853.658025) can0 1FA#193A240000000000
(1554630853.659200) can0 0FF#001DC3B677000951
(1554630853.660923) can0 0DE#1BF997D0031A
(1554630853.660924) can0 2ED#7500000000000000
(1554630853.660924) can0 100#4EE1DC3B80000A80
(1554630853.662486) can0 259#0000009030000000
(1554630853.662487) can0 0FE#8027FE800032029F
(1554630853.662488) can0 101#000000041FC002C3
(1554630853.662488) can0 103#000003E8000002F9
(1554630853.663433) can0 1F0#001FE00000000000
(1554630853.663434) can0 1F1#FF0000000100016D
(1554630853.664689) can0 0F0#FFC00084BFF80B6D
(1554630853.664691) can0 104#0000000600000BAC
(1554630853.664691) can0 1F7#000000B800000000
(1554630853.664692) can0 0F4#17E8770000001A4B
(1554630853.664692) can0 0FB#000C1DC400000A7E
(1554630853.666867) can0 0FA#402000003008008E
(1554630853.666868) can0 2EC#0000000000000000
(1554630853.666868) can0 0FC#0000800018000AEF
(1554630853.666869) can0 1EF#8800000000000891
(1554630853.666870) can0 1F4#000003C000000D94
(1554630853.668018) can0 0EE#000000000000032D
(1554630853.668019) can0 116#010000000000026D
(1554630853.668019) can0 1F2#0000000000000117
(1554630853.668020) can0 1F8#40FF800000000B31
(1554630853.668020) can0 2FA#0007ED00
(1554630853.669233) can0 736#0832323CC1000000
(1554630853.669234) can0 0FF#001DC3B677000A76
(1554630853.670854) can0 0DE#1BF997D00449
(1554630853.670856) can0 100#4EE1DC3B80000B9D
(1554630853.672841) can0 0FE#7FF80180003203B9
(1554630853.672842) can0 101#000000041FC003DE
(1554630853.672842) can0 103#000003E8000003E4
(1554630853.672843) can0 1F5#00003F0000
(1554630853.674640) can0 0F0#FFC00084BFF80C3E
(1554630853.674641) can0 104#0000000600000CFF
(1554630853.674641) can0 158#00000598
(1554630853.674642) can0 0F4#17E8770000001B56
(1554630853.674643) can0 0FB#000C1DC400000B63
(1554630853.676919) can0 0FA#4020000038080082
(1554630853.676921) can0 7D0#00
(1554630853.676921) can0 0FC#0000800018000BF2
(1554630853.676922) can0 0EE#000000000000047E
(1554630853.678007) can0 116#0100000000000370
(1554630853.678008) can0 1FA#197A240000000000
(1554630853.679204) can0 0FF#001DC3B677000B6B
(1554630853.680857) can0 0DE#1BF997D00554
(1554630853.680858) can0 100#4EE1DC3B80000CCE
(1554630853.682293) can0 416#0031433442553030
(1554630853.682294) can0 0FE#7FF803800032043E
(1554630853.682295) can0 101#000000041FC0048D
(1554630853.682295) can0 103#000003E8000004B7
(1554630853.683474) can0 1F0#001FE00000000000
(1554630853.683475) can0 1F1#FF0000000100024A
(1554630853.684626) can0 0F0#FFC00084BFF80D23
(1554630853.684627) can0 104#0000000600000DE2
(1554630853.684628) can0 1F7#000000B800000000
(1554630853.684628) can0 0F4#17E8770000001C05
(1554630853.684629) can0 0FB#000C1DC400000C30
(1554630853.686880) can0 0FA#40200000400800C6
(1554630853.686881) can0 1EF#880000000000098C
(1554630853.686882) can0 0FC#0000800018000CA1
(1554630853.686882) can0 1F4#000003C000000EB3
(1554630853.687783) can0 0EE#0000000000000563
(1554630853.687784) can0 116#0100000000000423
(1554630853.687785) can0 1F2#0000000000000230
(1554630853.687785) can0 1F8#40FF800000000C62
(1554630853.687786) can0 41B#2720000001600000
(1554630853.689013) can0 2FA#00085600
(1554630853.689014) can0 0FF#001DC3B677000C38
(1554630853.690953) can0 0DE#1BF997D00673
(1554630853.690954) can0 100#4EE1DC3B80000DD3
(1554630853.692830) can0 0FE#8008028000320570
(1554630853.692831) can0 101#000000041FC00590
(1554630853.692831) can0 103#000003E8000005AA
(1554630853.692832) can0 1F5#00003F0000
(1554630853.694803) can0 0F0#FFC00084BFF80E04
(1554630853.694804) can0 104#0000000600000EC5
(1554630853.694805) can0 0FB#000C1DC400000D2D
(1554630853.694805) can0 0F4#17E8770000001D18
(1554630853.695643) can0 2EF#0F71000000000000
(1554630853.696684) can0 0FA#40200000480800CA
(1554630853.696685) can0 7D0#00
(1554630853.696685) can0 0FC#0000800018000DBC
(1554630853.697664) can0 0EE#0000000000000644
(1554630853.697665) can0 116#010000000000053E
(1554630853.697666) can0 1FA#197A240000000000
(1554630853.699269) can0 0FF#001DC3B677000D25
(1554630853.700839) can0 0DE#1BF997D0076E
(1554630853.700840) can0 100#4EE1DC3B80000EF4
(1554630853.702302) can0 384#081DAA8800C00000
(1554630853.702303) can0 256#0800007FC4420000
(1554630853.702304) can0 0FE#8008008000320683
(1554630853.702304) can0 101#000000041FC006B7
(1554630853.702305) can0 103#000003E80000068D
(1554630853.703502) can0 190#0010000000000224
(1554630853.703503) can0 1F0#001FE00000000000
(1554630853.703504) can0 1F1#FF00000001000357
(1554630853.703504) can0 419#8A00000C00000000
(1554630853.704613) can0 0F0#FFC00084BFF80F19
(1554630853.704614) can0 104#0000000600000FD8
(1554630853.704614) can0 1F7#000000B800000000
(1554630853.704615) can0 0F4#17E8770000001E3F
(1554630853.704615) can0 0FB#000C1DC400000E0A
(1554630853.706877) can0 0FA#40200000500800DE
(1554630853.706878) can0 1EF#8800000000000AAB
(1554630853.706879) can0 0FC#0000800018000E9B
(1554630853.706880) can0 1F4#000003C000000FAE
(1554630853.707785) can0 0EE#0000000000000759
(1554630853.707786) can0 116#0100000000000619
(1554630853.707787) can0 1F2#000000000000032D
(1554630853.707788) can0 1F8#40FF800000000D7F
(1554630853.707788) can0 418#00000D70
(1554630853.708959) can0 2FA#00094B00
(1554630853.708960) can0 0FF#001DC3B677000E02
(1554630853.708961) can0 5AE#000000041201C400
(1554630853.710891) can0 0DE#1BF997D008D5
(1554630853.710892) can0 2ED#7500000000000000
(1554630853.710892) can0 100#4EE1DC3B80000FE9
(1554630853.710893) can0 15C#32000100000009F9
(1554630853.712843) can0 0FE#7FF80080003207A7
(1554630853.712844) can0 101#000000041FC007AA
(1554630853.712844) can0 103#000003E800000790
(1554630853.712845) can0 1F5#00003F0000
(1554630853.714765) can0 0F0#FFC00084BFF800A2
(1554630853.714766) can0 104#0000000600000063
(1554630853.714767) can0 0FB#000C1DC400000F17
(1554630853.714770) can0 0F4#17E8770000001F22
(1554630853.716861) can0 0FA#40200000580800D2
(1554630853.716862) can0 2EC#0000000000000000
(1554630853.716863) can0 0FC#0000800018000F86
(1554630853.716863) can0 412#0000023200
(1554630853.716864) can0 7D0#00
(1554630853.717782) can0 0EE#00000000000008E2
(1554630853.717783) can0 116#0100000000000704
(1554630853.717784) can0 1FA#193A240000000000
(1554630853.719243) can0 0FF#001DC3B677000F1F
(1554630853.720652) can0 0DE#1BF997D009C8
(1554630853.720653) can0 100#4EE1DC3B80000052
(1554630853.722706) can0 0FE#7FF8018000320876
(1554630853.722707) can0 101#000000041FC00811
(1554630853.722707) can0 103#000003E80000082B
(1554630853.722708) can0 1F0#001FE00000000000
(1554630853.722708) can0 1F1#FF00000001000404
(1554630853.724852) can0 0F0#FFC00084BFF801BF
(1554630853.724853) can0 104#000000060000017E
(1554630853.724854) can0 1F7#000000B800000000
(1554630853.724854) can0 0F4#17E8770000001099
(1554630853.724855) can0 0FB#000C1DC4000000AC
(1554630853.726841) can0 0FA#40200000600800F6
(1554630853.726842) can0 1EF#8800000000000BB6
(1554630853.726843) can0 0FC#000080001800003D
(1554630853.726843) can0 1F4#000003C000000015
(1554630853.727790) can0 0EE#00000000000009FF
(1554630853.727791) can0 116#01000000000008BF
(1554630853.727792) can0 1F2#000000000000047E
(1554630853.727793) can0 1F8#40FF800000000E58
(1554630853.727793) can0 2FA#000A6C00
(1554630853.729242) can0 0FF#001DC3B6770000A4
(1554630853.730920) can0 0DE#1BF997D00AEF
(1554630853.730921) can0 257#001E30718C400000
(1554630853.730921) can0 100#4EE1DC3B8000014F
(1554630853.732191) can0 41A#A6C800A88EC660
(1554630853.732192) can0 0FE#7FF7FF800032092B
(1554630853.732192) can0 101#000000041FC0090C
(1554630853.733258) can0 103#000003E800000936
(1554630853.733259) can0 1F5#00003F0000
(1554630853.734689) can0 0F0#FFC00084BFF80298
(1554630853.734690) can0 104#0000000600000259
(1554630853.734690) can0 0FB#000C1DC4000001B1
(1554630853.734691) can0 0F4#17E8770000001184
(1554630853.736853) can0 0FA#40200000680800FA
(1554630853.736854) can0 7D0#00
(1554630853.736855) can0 0FC#0000800018000120
(1554630853.737633) can0 0EE#0000000000000AD8
(1554630853.737634) can0 116#01000000000009A2
(1554630853.737634) can0 1FA#197A240000000000
(1554630853.739304) can0 0FF#001DC3B6770001B9
(1554630853.740906) can0 0DE#1BF997D00BF2
(1554630853.740907) can0 100#4EE1DC3B80000268
(1554630853.742191) can0 2EE#8A600000
(1554630853.742192) can0 41E#FFFDFFFEFF0000C0
(1554630853.742193) can0 420#FF6FF6FF6FF60000
(1554630853.742193) can0 0FE#7FD7FD8000320AF0
(1554630853.743131) can0 101#000000041FC00A2B
(1554630853.743132) can0 103#000003E800000A11
(1554630853.743132) can0 1F0#001FE00000000000
(1554630853.743133) can0 1F1#FF00000001000519
(1554630853.744687) can0 0F0#FFC00084BFF80385
(1554630853.744688) can0 104#0000000600000344
(1554630853.744689) can0 1F7#000000B800000000
(1554630853.744690) can0 0F4#17E87700000012A3
(1554630853.744690) can0 0FB#000C1DC400000296
(1554630853.745817) can0 2EF#0F71000000000000
(1554630853.745818) can0 0FA#40200000700800EE
(1554630853.747146) can0 1EF#8800000000000CE5
(1554630853.747147) can0 0FC#0000800018000207
(1554630853.747148) can0 1F4#000003C000000108
(1554630853.747149) can0 0EE#0000000000000BC5
(1554630853.747149) can0 116#0100000000000A85
(1554630853.748355) can0 1F2#0000000000000563
(1554630853.748356) can0 1F8#40FF800000000F45
(1554630853.748357) can0 2FA#000B7100
(1554630853.748357) can0 0FF#001DC3B67700029E
(1554630853.750967) can0 0DE#1BF997D00CA1
(1554630853.750968) can0 100#4EE1DC3B80000375
(1554630853.750968) can0 417#C30008A000000000
(1554630853.752826) can0 0FE#7FD7FF8000320B39
(1554630853.752827) can0 101#000000041FC00B36
(1554630853.752828) can0 103#000003E800000B0C
(1554630853.752829) can0 190#0010000000000339
(1554630853.752829) can0 1F5#00003F0000
(1554630853.754798) can0 0F0#FFC00084BFF804D6
(1554630853.754799) can0 104#0000000600000417
(1554630853.754800) can0 0FB#000C1DC40000038B
(1554630853.754800) can0 0F4#17E87700000013BE
(1554630853.756847) can0 0FA#40200000780800E2
(1554630853.756848) can0 7D0#00
(1554630853.756848) can0 0FC#000080001800031A
(1554630853.757641) can0 0EE#0000000000000C96
(1554630853.757642) can0 116#0100000000000B98
(1554630853.757643) can0 1FA#197A240000000000
(1554630853.759300) can0 0FF#001DC3B677000383
(1554630853.760836) can0 0DE#1BF997D00DBC
(1554630853.760837) can0 2ED#7500000000000000
(1554630853.760838) can0 100#4EE1DC3B80000426
(1554630853.762161) can0 259#0000009030000000
(1554630853.762162) can0 0FE#7FF8018000320C02
(1554630853.762162) can0 101#000000041FC00C65
(1554630853.762163) can0 103#000003E800000C5F
(1554630853.763530) can0 1F0#001FE00000000000
(1554630853.763531) can0 1F1#FF0000000100063E
(1554630853.764613) can0 0F0#FFC00084BFF805CB
(1554630853.764614) can0 104#000000060000050A
(1554630853.764615) can0 1F7#000000B800000000
(1554630853.764615) can0 0F4#17E87700000014ED
(1554630853.764616) can0 0FB#000C1DC4000004D8
(1554630853.766941) can0 0FA#40200000000800A6
(1554630853.766942) can0 2EC#0000000000000000
(1554630853.766943) can0 0FC#0000800018000449
(1554630853.766944) can0 1EF#8800000000000DF8
(1554630853.766944) can0 0EE#0000000000000D8B
(1554630853.768028) can0 116#0100000000000CCB
(1554630853.768029) can0 1F2#0000000000000644
(1554630853.768030) can0 1F4#000003C00000022F
(1554630853.768030) can0 1F8#40FF8000000000FE
(1554630853.768031) can0 2FA#000C2200
(1554630853.769224) can0 736#0832323CC1000000
(1554630853.769225) can0 0FF#001DC3B6770004D0
(1554630853.770852) can0 0DE#1BF997D00E9B
(1554630853.770852) can0 100#4EE1DC3B8000053B
(1554630853.772841) can0 0FE#7FF8008000320D75
(1554630853.772843) can0 101#000000041FC00D78
(1554630853.772843) can0 103#000003E800000D42
(1554630853.772844) can0 1F5#00003F0000
(1554630853.774768) can0 0F0#FFC00084BFF806EC
(1554630853.774769) can0 104#000000060000062D
(1554630853.774769) can0 0FB#000C1DC4000005C5
(1554630853.774770) can0 0F4#17E87700000015F0
(1554630853.776922) can0 0FA#40200000080800AA
(1554630853.776923) can0 7D0#00
(1554630853.776924) can0 0FC#0000800018000554
(1554630853.776924) can0 0EE#0000000000000EAC
(1554630853.777977) can0 116#0100000000000DD6
(1554630853.777978) can0 1FA#197A240000000000
(1554630853.779231) can0 0FF#001DC3B6770005CD
(1554630853.780918) can0 0DE#1BF997D00F86
(1554630853.780919) can0 100#4EE1DC3B8000061C
(1554630853.782309) can0 416#0130304850453836
(1554630853.782310) can0 0FE#8007FF8000320E41
(1554630853.782311) can0 101#000000041FC00E5F
(1554630853.782311) can0 103#000003E800000E65
(1554630853.783471) can0 1F0#001FE00000000000
(1554630853.783475) can0 1F1#FF00000001000723
(1554630853.784714) can0 0F0#FFC00084BFF807F1
(1554630853.784715) can0 104#0000000600000730
(1554630853.784716) can0 1F7#000000B800000000
(1554630853.784716) can0 0F4#17E87700000016D7
(1554630853.784717) can0 0FB#000C1DC4000006E2
(1554630853.786930) can0 0FA#40200000100800BE
(1554630853.786931) can0 1EF#8800000000000EDF
(1554630853.786932) can0 0FC#0000800018000673
(1554630853.786932) can0 1F4#000003C000000332
(1554630853.787769) can0 0EE#0000000000000FB1
(1554630853.787770) can0 116#0100000000000EF1
(1554630853.787770) can0 1F2#0000000000000759
(1554630853.787771) can0 1F8#40FF8000000001E3
(1554630853.787771) can0 41B#2720000001600000
(1554630853.789006) can0 2FA#000D3F00
(1554630853.789007) can0 0FF#001DC3B6770006EA
(1554630853.790951) can0 0DE#1BF997D0003D
(1554630853.790952) can0 100#4EE1DC3B80000701
(1554630853.792831) can0 0FE#8007FE8000320F36
(1554630853.792832) can0 101#000000041FC00F42
(1554630853.792832) can0 103#000003E800000F78
(1554630853.792833) can0 1F5#00003F0000
(1554630853.794619) can0 0F0#FFC00084BFF8084A
(1554630853.794620) can0 104#000000060000088B
(1554630853.794620) can0 0FB#000C1DC4000007FF
(1554630853.794621) can0 0F4#17E87700000017CA
(1554630853.795690) can0 2EF#0F71000000000000
(1554630853.796685) can0 0FA#40200000180800B2
(1554630853.796686) can0 7D0#00
(1554630853.796686) can0 0FC#000080001800076E
(1554630853.797680) can0 0EE#000000000000000A
(1554630853.797681) can0 116#0100000000000FEC
(1554630853.797681) can0 1FA#197A240000000000
(1554630853.799294) can0 0FF#001DC3B6770007F7
(1554630853.800903) can0 0DE#1BF997D00120
(1554630853.800904) can0 100#4EE1DC3B800008BA
(1554630853.802313) can0 419#8A00000C00000000
(1554630853.802314) can0 256#0800007FC4420000
(1554630853.802314) can0 0FE#7FE7FD800032001E
(1554630853.802315) can0 101#000000041FC000F9
(1554630853.802316) can0 103#000003E8000000C3
(1554630853.803418) can0 190#001000000000046A
(1554630853.803419) can0 1F0#001FE00000000000
(1554630853.803420) can0 1F1#FF00000001000898
(1554630853.804616) can0 0F0#FFC00084BFF80957
(1554630853.804617) can0 104#0000000600000996
(1554630853.804618) can0 1F7#000000B800000000
(1554630853.804618) can0 0F4#17E8770000001871
(1554630853.804619) can0 0FB#000C1DC400000844
(1554630853.806904) can0 0FA#4020000020080096
(1554630853.806905) can0 1EF#8800000000000FC2
(1554630853.806905) can0 0FC#00008000180008D5
(1554630853.806906) can0 1F4#000003C000000461
(1554630853.807776) can0 0EE#0000000000000117
(1554630853.807777) can0 116#0100000000000057
(1554630853.807778) can0 1F2#00000000000008E2
(1554630853.807778) can0 1F8#40FF8000000002C4
(1554630853.807779) can0 418#00000E57
(1554630853.808963) can0 2FA#000E1800
(1554630853.808965) can0 0FF#001DC3B67700084C
(1554630853.810822) can0 0DE#1BF997D00207
(1554630853.810823) can0 2ED#7500000000000000
(1554630853.810824) can0 100#4EE1DC3B800009A7
(1554630853.810825) can0 15C#3200010000000ADE
(1554630853.812802) can0 0FE#7FD7FF80003201EB
(1554630853.812803) can0 101#000000041FC001E4
(1554630853.812803) can0 103#000003E8000001DE
(1554630853.812804) can0 1F5#00003F0000
(1554630853.814805) can0 0F0#FFC00084BFF80A70
(1554630853.814806) can0 104#0000000600000AB1
(1554630853.814807) can0 0FB#000C1DC400000959
(1554630853.814807) can0 0F4#17E877000000196C
(1554630853.816914) can0 0FA#402000002808009A
(1554630853.816915) can0 2EC#0000000000000000
(1554630853.816916) can0 0FC#00008000180009C8
(1554630853.816916) can0 412#0000023200
(1554630853.816917) can0 0EE#0000000000000230
(1554630853.817977) can0 116#010000000000014A
(1554630853.817978) can0 1FA#197A240000000000
(1554630853.817979) can0 7D0#00
(1554630853.819234) can0 0FF#001DC3B677000951
(1554630853.820907) can0 0DE#1BF997D0031A
(1554630853.820908) can0 100#4EE1DC3B80000A80
(1554630853.822825) can0 0FE#7FE80180003202B0
(1554630853.822826) can0 101#000000041FC002C3
(1554630853.822827) can0 103#000003E8000002F9
(1554630853.822827) can0 1F0#001FE00000000000
(1554630853.822828) can0 1F1#FF00000001000985
(1554630853.824740) can0 0F0#FFC00084BFF80B6D
(1554630853.824741) can0 104#0000000600000BAC
(1554630853.824742) can0 1F7#000000B800000000
(1554630853.824743) can0 0F4#17E8770000001A4B
(1554630853.824743) can0 0FB#000C1DC400000A7E
(1554630853.826923) can0 0FA#402000003008008E
(1554630853.826924) can0 1EF#8800000000000079
(1554630853.826925) can0 0FC#0000800018000AEF
(1554630853.826925) can0 1F4#000003C00000057C
(1554630853.827768) can0 0EE#000000000000032D
(1554630853.827769) can0 116#010000000000026D
(1554630853.827770) can0 1F2#00000000000009FF
(1554630853.827771) can0 1F8#40FF8000000003D9
(1554630853.828806) can0 2FA#000F0500
(1554630853.828807) can0 0FF#001DC3B677000A76
(1554630853.830913) can0 0DE#1BF997D00449
(1554630853.830914) can0 100#4EE1DC3B80000B9D
(1554630853.830915) can0 257#001E30718C400000
(1554630853.832217) can0 41A#A6C800A88EC660
(1554630853.832218) can0 545#6817460780120000
(1554630853.832219) can0 0FE#7FF80080003203D3
(1554630853.832220) can0 101#000000041FC003DE
(1554630853.833219) can0 103#000003E8000003E4
(1554630853.833220) can0 1F5#00003F0000
(1554630853.834668) can0 0F0#FFC00084BFF80C3E
(1554630853.834669) can0 104#0000000600000CFF
(1554630853.834670) can0 0FB#000C1DC400000B63
(1554630853.834670) can0 0F4#17E8770000001B56
(1554630853.837010) can0 0FA#4020000038080082
(1554630853.837011) can0 7D0#00
(1554630853.837011) can0 0FC#0000800018000BF2
(1554630853.837012) can0 0EE#000000000000047E
(1554630853.837984) can0 116#0100000000000370
(1554630853.837985) can0 1FA#193A240000000000
(1554630853.839234) can0 0FF#001DC3B677000B6B
(1554630853.840916) can0 0DE#1BF997D00554
(1554630853.840918) can0 100#4EE1DC3B80000CCE
(1554630853.842225) can0 2EE#8AE00000
(1554630853.842226) can0 41E#FFFDFFFEFF0000C0
(1554630853.842227) can0 420#FF6FF6FF6FF60000
(1554630853.842227) can0 0FE#8007FE80003204F9
(1554630853.843157) can0 101#000000041FC0048D
(1554630853.843158) can0 103#000003E8000004B7
(1554630853.843159) can0 1F0#001FE00000000000
(1554630853.843159) can0 1F1#FF00000001000AA2
(1554630853.844743) can0 0F0#FFC00084BFF80D23
(1554630853.844744) can0 104#0000000600000DE2
(1554630853.844745) can0 1F7#000000B800000000
(1554630853.844745) can0 0F4#17E8770000001C05
(1554630853.844746) can0 0FB#000C1DC400000C30
(1554630853.845796) can0 2EF#0F71000000000000
(1554630853.845797) can0 0FA#40200000400800C6
(1554630853.847155) can0 1EF#8800000000000164
(1554630853.847156) can0 0FC#0000800018000CA1
(1554630853.847156) can0 1F4#000003C00000065B
(1554630853.847157) can0 0EE#0000000000000563
(1554630853.847158) can0 116#0100000000000423
(1554630853.848345) can0 1F2#0000000000000AD8
(1554630853.848346) can0 1F8#40FF80000000048A
(1554630853.848346) can0 41C#0008000000000A00
(1554630853.848347) can0 2FA#0000BE00
(1554630853.848347) can0 0FF#001DC3B677000C38
(1554630853.851023) can0 0DE#1BF997D00673
(1554630853.851024) can0 100#4EE1DC3B80000DD3
(1554630853.851024) can0 417#C30008A000000000
(1554630853.852166) can0 5A6#800242E95F400000
(1554630853.852167) can0 0FE#8007FD800032055A
(1554630853.852167) can0 101#000000041FC00590
(1554630853.853261) can0 103#000003E8000005AA
(1554630853.853262) can0 190#0010000000000577
(1554630853.853263) can0 1F5#00003F0000
(1554630853.854659) can0 0F0#FFC00084BFF80E04
(1554630853.854660) can0 104#0000000600000EC5
(1554630853.854661) can0 0FB#000C1DC400000D2D
(1554630853.854661) can0 0F4#17E8770000001D18
(1554630853.857007) can0 0FA#40200000480800CA
(1554630853.857008) can0 7D0#00
(1554630853.857008) can0 0FC#0000800018000DBC
(1554630853.857009) can0 0EE#0000000000000644
(1554630853.857988) can0 116#010000000000053E
(1554630853.857989) can0 1FA#197A240000000000
(1554630853.859235) can0 0FF#001DC3B677000D25
(1554630853.860852) can0 0DE#1BF997D0076E
(1554630853.860853) can0 2ED#7500000000000000
(1554630853.860853) can0 100#4EE1DC3B80000EF4
(1554630853.862307) can0 73E#02008000
(1554630853.862308) can0 259#0000009030000000
(1554630853.862308) can0 0FE#7FE7FE80003206EE
(1554630853.862309) can0 101#000000041FC006B7
(1554630853.862309) can0 103#000003E80000068D
(1554630853.863496) can0 1F0#001FE00000000000
(1554630853.863497) can0 1F1#FF00000001000BBF
(1554630853.864590) can0 0F0#FFC00084BFF80F19
(1554630853.864591) can0 104#0000000600000FD8
(1554630853.864592) can0 1F7#000000B800000000
(1554630853.864593) can0 0F4#17E8770000001E3F
(1554630853.864593) can0 0FB#000C1DC400000E0A
(1554630853.867010) can0 0FA#40200000500800DE
(1554630853.867011) can0 2EC#0000000000000000
(1554630853.867011) can0 0FC#0000800018000E9B
(1554630853.867012) can0 1EF#8800000000000243
(1554630853.867012) can0 0EE#0000000000000759
(1554630853.868044) can0 116#0100000000000619
(1554630853.868045) can0 1F2#0000000000000BC5
(1554630853.868046) can0 1F4#000003C000000746
(1554630853.868046) can0 1F8#40FF800000000597
(1554630853.868047) can0 2FA#0001A300
(1554630853.869225) can0 736#0832323CC1000000
(1554630853.869226) can0 0FF#001DC3B677000E02
(1554630853.870856) can0 0DE#1BF997D008D5
(1554630853.870857) can0 100#4EE1DC3B80000FE9
(1554630853.872840) can0 0FE#7FF80180003207CD
(1554630853.872841) can0 101#000000041FC007AA
(1554630853.872842) can0 103#000003E800000790
(1554630853.872842) can0 1F5#00003F0000
(1554630853.874792) can0 0F0#FFC00084BFF800A2
(1554630853.874793) can0 104#0000000600000063
(1554630853.874794) can0 0FB#000C1DC400000F17
(1554630853.874794) can0 0F4#17E8770000001F22
(1554630853.876987) can0 0FA#40200000580800D2
(1554630853.876988) can0 7D0#00
(1554630853.876989) can0 0FC#0000800018000F86
(1554630853.876990) can0 0EE#00000000000008E2
(1554630853.877960) can0 116#0100000000000704
(1554630853.877961) can0 1FA#193A240000000000
(1554630853.879241) can0 0FF#001DC3B677000F1F
(1554630853.880862) can0 0DE#1BF997D009C8
(1554630853.880863) can0 100#4EE1DC3B80000052
(1554630853.882349) can0 416#0235353400000000
(1554630853.882350) can0 0FE#8017FD80003208CF
(1554630853.882354) can0 101#000000041FC00811
(1554630853.882354) can0 103#000003E80000082B
(1554630853.883489) can0 1F0#001FE00000000000
(1554630853.883490) can0 1F1#FF00000001000CEC
(1554630853.883491) can0 5E0#0043890000000C32
(1554630853.884391) can0 0F0#FFC00084BFF801BF
(1554630853.884391) can0 104#000000060000017E
(1554630853.884392) can0 1F7#000000B800000000
(1554630853.884392) can0 0F4#17E8770000001099
(1554630853.884393) can0 0FB#000C1DC4000000AC
(1554630853.886473) can0 0FA#40200000600800F6
(1554630853.886473) can0 1EF#880000000000035E
(1554630853.886474) can0 0FC#000080001800003D
(1554630853.886474) can0 1F4#000003C0000008FD
(1554630853.887617) can0 0EE#00000000000009FF
(1554630853.887618) can0 116#01000000000008BF
(1554630853.887619) can0 1F2#0000000000000C96
(1554630853.887619) can0 1F8#40FF8000000006B0
(1554630853.887620) can0 41B#2720000001600000
(1554630853.888791) can0 2FA#00028400
(1554630853.888792) can0 0FF#001DC3B6770000A4
(1554630853.890473) can0 0DE#1BF997D00AEF
(1554630853.890474) can0 100#4EE1DC3B8000014F
(1554630853.891989) can0 4B1#05C0000800000000
(1554630853.891990) can0 0FE#8007FC80003209AC
(1554630853.891991) can0 101#000000041FC0090C
(1554630853.893017) can0 103#000003E800000936
(1554630853.893018) can0 1F5#00003F0000
(1554630853.894390) can0 0F0#FFC00084BFF80298
(1554630853.894391) can0 104#0000000600000259
(1554630853.894391) can0 0FB#000C1DC4000001B1
(1554630853.894392) can0 0F4#17E8770000001184
(1554630853.895734) can0 2EF#0F71000000000000
(1554630853.896668) can0 0FA#40200000680800FA
(1554630853.896669) can0 7D0#00
(1554630853.896670) can0 0FC#0000800018000120
(1554630853.897678) can0 0EE#0000000000000AD8
(1554630853.897678) can0 116#01000000000009A2
(1554630853.897679) can0 1FA#197A240000000000
(1554630853.899293) can0 0FF#001DC3B6770001B9
(1554630853.900845) can0 0DE#1BF997D00BF2
(1554630853.900846) can0 100#4EE1DC3B80000268
(1554630853.900846) can0 1E360001#05
(1554630853.902140) can0 419#8A00000C00000000
(1554630853.902141) can0 256#0800007FC4420000
(1554630853.902141) can0 0FE#7FE7FF8000320A18
(1554630853.902142) can0 101#000000041FC00A2B
(1554630853.902142) can0 103#000003E800000A11
(1554630853.903342) can0 190#0010000000000650
(1554630853.903342) can0 1F0#001FE00000000000
(1554630853.903343) can0 1F1#FF00000001000DF1
(1554630853.904517) can0 0F0#FFC00084BFF80385
(1554630853.904518) can0 104#0000000600000344
(1554630853.904518) can0 1F7#000000B800000000
(1554630853.904519) can0 0F4#17E87700000012A3
(1554630853.904519) can0 0FB#000C1DC400000296
(1554630853.907017) can0 0FA#40200000700800EE
(1554630853.907018) can0 1EF#880000000000040D
(1554630853.907018) can0 0FC#0000800018000207
(1554630853.907019) can0 1F4#000003C0000009E0
(1554630853.907020) can0 0EE#0000000000000BC5
(1554630853.908042) can0 116#0100000000000A85
(1554630853.908043) can0 1F2#0000000000000D8B
(1554630853.908044) can0 1F8#40FF8000000007AD
(1554630853.908044) can0 418#00000F4A
(1554630853.908045) can0 2FA#00039900
(1554630853.909226) can0 0FF#001DC3B67700029E
(1554630853.910852) can0 0DE#1BF997D00CA1
(1554630853.910853) can0 2ED#7500000000000000
(1554630853.910853) can0 100#4EE1DC3B80000375
(1554630853.910854) can0 15C#3200010000000BC3
(1554630853.912841) can0 0FE#7FE8018000320B45
(1554630853.912842) can0 101#000000041FC00B36
(1554630853.912846) can0 103#000003E800000B0C
(1554630853.912847) can0 1F5#00003F0000
(1554630853.914739) can0 0F0#FFC00084BFF804D6
(1554630853.914740) can0 104#0000000600000417
(1554630853.914740) can0 0FB#000C1DC40000038B
(1554630853.914741) can0 0F4#17E87700000013BE
(1554630853.916993) can0 0FA#40200000780800E2
(1554630853.916994) can0 2EC#0000000000000000
(1554630853.916995) can0 0FC#000080001800031A
(1554630853.916996) can0 412#0000023200
(1554630853.916996) can0 0EE#0000000000000C96
(1554630853.918019) can0 116#0100000000000B98
(1554630853.918019) can0 1FA#197A240000000000
(1554630853.918020) can0 7D0#00
(1554630853.919224) can0 0FF#001DC3B677000383
(1554630853.920844) can0 0DE#1BF997D00DBC
(1554630853.920845) can0 100#4EE1DC3B80000426
(1554630853.922844) can0 0FE#7FF8018000320C02
(1554630853.922845) can0 101#000000041FC00C65
(1554630853.922846) can0 103#000003E800000C5F
(1554630853.922846) can0 1F0#001FE00000000000
(1554630853.922847) can0 1F1#FF00000001000ED6
(1554630853.924769) can0 0F0#FFC00084BFF805CB
(1554630853.924770) can0 104#000000060000050A
(1554630853.924770) can0 1F7#000000B800000000
(1554630853.924771) can0 0F4#17E87700000014ED
(1554630853.924771) can0 0FB#000C1DC4000004D8
(1554630853.925654) can0 1E36000B#05
(1554630853.926830) can0 0FA#40200000000800A6
(1554630853.926831) can0 1EF#8800000000000510
(1554630853.926831) can0 0FC#0000800018000449
(1554630853.926832) can0 1F4#000003C000000AC7
(1554630853.926832) can0 0EE#0000000000000D8B
(1554630853.928032) can0 116#0100000000000CCB
(1554630853.928033) can0 1F2#0000000000000EAC
(1554630853.928033) can0 1F8#40FF800000000816
(1554630853.928034) can0 2FA#0004CA00
(1554630853.929138) can0 0FF#001DC3B6770004D0
(1554630853.930866) can0 0DE#1BF997D00E9B
(1554630853.930867) can0 257#001E30718C400000
(1554630853.930867) can0 100#4EE1DC3B8000053B
(1554630853.932198) can0 41A#A6C800A88EC660
(1554630853.932199) can0 1E360003#05
(1554630853.932199) can0 0FE#8007FF8000320D66
(1554630853.932200) can0 101#000000041FC00D78
(1554630853.933254) can0 103#000003E800000D42
(1554630853.933255) can0 1F5#00003F0000
(1554630853.934720) can0 0F0#FFC00084BFF806EC
(1554630853.934721) can0 104#000000060000062D
(1554630853.934721) can0 0FB#000C1DC4000005C5
(1554630853.934722) can0 0F4#17E87700000015F0
(1554630853.936864) can0 0FA#40200000080800AA
(1554630853.936865) can0 7D0#00
(1554630853.936865) can0 0FC#0000800018000554
(1554630853.936866) can0 0EE#0000000000000EAC
(1554630853.938019) can0 116#0100000000000DD6
(1554630853.938020) can0 1FA#197A240000000000
(1554630853.939228) can0 0FF#001DC3B6770005CD
(1554630853.940916) can0 0DE#1BF997D00F86
(1554630853.940917) can0 100#4EE1DC3B8000061C
(1554630853.942246) can0 2EE#8A600000
(1554630853.942247) can0 41E#FFFDFFFEFF0000C0
(1554630853.942248) can0 0FE#7FF7FF8000320E78
(1554630853.942248) can0 101#000000041FC00E5F
(1554630853.942249) can0 103#000003E800000E65
(1554630853.943466) can0 1F0#001FE00000000000
(1554630853.943466) can0 1F1#FF00000001000FCB
(1554630853.943467) can0 420#FF6FF6FF6FF60000
(1554630853.944621) can0 0F0#FFC00084BFF807F1
(1554630853.944622) can0 104#0000000600000730
(1554630853.944623) can0 1F7#000000B800000000
(1554630853.944624) can0 0F4#17E87700000016D7
(1554630853.944624) can0 0FB#000C1DC4000006E2
(1554630853.945829) can0 2EF#0F71000000000000
(1554630853.945830) can0 0FA#40200000100800BE
(1554630853.947141) can0 1EF#8800000000000637
(1554630853.947142) can0 0FC#0000800018000673
(1554630853.947143) can0 1F4#000003C000000BDA
(1554630853.947143) can0 0EE#0000000000000FB1
(1554630853.947144) can0 116#0100000000000EF1
(1554630853.948354) can0 1F2#0000000000000FB1
(1554630853.948355) can0 1F8#40FF80000000090B
(1554630853.948355) can0 2FA#0005D700
(1554630853.948356) can0 0FF#001DC3B6770006EA
(1554630853.951022) can0 0DE#1BF997D0003D
(1554630853.951023) can0 100#4EE1DC3B80000701
(1554630853.951023) can0 417#C30008A000000000
(1554630853.952194) can0 384#081DAA8800C00000
(1554630853.952195) can0 0FE#7FE7FE8000320F1B
(1554630853.952195) can0 101#000000041FC00F42
(1554630853.953285) can0 103#000003E800000F78
(1554630853.953286) can0 190#001000000000074D
(1554630853.953286) can0 1F5#00003F0000
(1554630853.954681) can0 0F0#FFC00084BFF8084A
(1554630853.954682) can0 104#000000060000088B
(1554630853.954682) can0 0FB#000C1DC4000007FF
(1554630853.954683) can0 0F4#17E87700000017CA
(1554630853.956918) can0 0FA#40200000180800B2
(1554630853.956919) can0 738#0000000000
(1554630853.956920) can0 0FC#000080001800076E
(1554630853.956921) can0 7D0#00
(1554630853.956921) can0 0EE#000000000000000A
(1554630853.958001) can0 116#0100000000000FEC
(1554630853.958002) can0 1FA#197A240000000000
(1554630853.959230) can0 0FF#001DC3B6770007F7
(1554630853.960916) can0 0DE#1BF997D00120
(1554630853.960917) can0 2ED#7500000000000000
(1554630853.960918) can0 100#4EE1DC3B800008BA
(1554630853.961933) can0 1E360041#05
(1554630853.961934) can0 259#0000009030000000
(1554630853.961935) can0 0FE#7FF80080003200F4
(1554630853.962937) can0 101#000000041FC000F9
(1554630853.962938) can0 103#000003E8000000C3
(1554630853.962939) can0 1F0#001FE00000000000
(1554630853.962939) can0 1F1#FF00000001000070
(1554630853.964810) can0 0F0#FFC00084BFF80957
(1554630853.964811) can0 104#0000000600000996
(1554630853.964811) can0 1F7#000000B800000000
(1554630853.964812) can0 0F4#17E8770000001871
(1554630853.964813) can0 0FB#000C1DC400000844
(1554630853.966977) can0 0FA#4020000020080096
(1554630853.966978) can0 1EF#880000000000072A
(1554630853.966979) can0 0FC#00008000180008D5
(1554630853.966979) can0 1F4#000003C000000C89
(1554630853.966980) can0 0EE#0000000000000117
(1554630853.968088) can0 116#0100000000000057
(1554630853.968089) can0 1F2#000000000000000A
(1554630853.968090) can0 1F8#40FF800000000A2C
(1554630853.968090) can0 2EC#0000000000000000
(1554630853.968091) can0 2FA#0006F000
(1554630853.969172) can0 0FF#001DC3B67700084C
(1554630853.969173) can0 736#0832323CC1000000
(1554630853.970775) can0 0DE#1BF997D00207
(1554630853.970775) can0 100#4EE1DC3B800009A7
(1554630853.972854) can0 0FE#7FF8018000320183
(1554630853.972855) can0 101#000000041FC001E4
(1554630853.972855) can0 103#000003E8000001DE
(1554630853.972856) can0 1F5#00003F0000
(1554630853.973641) can0 0F0#FFC00084BFF80A70
(1554630853.974831) can0 104#0000000600000AB1
(1554630853.974832) can0 0FB#000C1DC400000959
(1554630853.974833) can0 0F4#17E877000000196C
(1554630853.976984) can0 0FA#402000002808009A
(1554630853.976985) can0 7D0#00
(1554630853.976986) can0 0FC#00008000180009C8
(1554630853.976986) can0 0EE#0000000000000230
(1554630853.977965) can0 116#010000000000014A
(1554630853.977966) can0 1FA#197A240000000000
(1554630853.979235) can0 0FF#001DC3B677000951
(1554630853.980916) can0 0DE#1BF997D0031A
(1554630853.980917) can0 100#4EE1DC3B80000A80
(1554630853.982364) can0 416#0031433442553030
(1554630853.982365) can0 0FE#7FF80080003202CE
(1554630853.982366) can0 101#000000041FC002C3
(1554630853.982366) can0 103#000003E8000002F9
(1554630853.983441) can0 1F0#001FE00000000000
(1554630853.983442) can0 1F1#FF0000000100016D
(1554630853.984657) can0 0F0#FFC00084BFF80B6D
(1554630853.984658) can0 104#0000000600000BAC
(1554630853.984659) can0 1F7#000000B800000000
(1554630853.984660) can0 0F4#17E8770000001A4B
(1554630853.984660) can0 0FB#000C1DC400000A7E
(1554630853.987006) can0 0FA#402000003008008E
(1554630853.987007) can0 1EF#8800000000000891
(1554630853.987007) can0 0FC#0000800018000AEF
(1554630853.987008) can0 1F4#000003C000000D94
(1554630853.987008) can0 0EE#000000000000032D
(1554630853.988072) can0 116#010000000000026D
(1554630853.988073) can0 1F2#0000000000000117
(1554630853.988074) can0 1F8#40FF800000000B31
(1554630853.988074) can0 41B#2720000001600000
(1554630853.988075) can0 2FA#0007ED00
(1554630853.989246) can0 0FF#001DC3B677000A76
(1554630853.990750) can0 0DE#1BF997D00449
(1554630853.990751) can0 100#4EE1DC3B80000B9D
(1554630853.992861) can0 0FE#7FF80080003203D3
(1554630853.992863) can0 101#000000041FC003DE
(1554630853.992863) can0 103#000003E8000003E4
(1554630853.992864) can0 1F5#00003F0000
(1554630853.994759) can0 0F0#FFC00084BFF80C3E
(1554630853.994760) can0 104#0000000600000CFF
(1554630853.994760) can0 0FB#000C1DC400000B63
(1554630853.994761) can0 0F4#17E8770000001B56
(1554630853.995655) can0 2EF#0F71000000000000
(1554630853.996833) can0 0FA#4020000038080082
(1554630853.996834) can0 7D0#00
(1554630853.996834) can0 0FC#0000800018000BF2
(1554630853.996835) can0 0EE#000000000000047E
(1554630853.998023) can0 116#0100000000000370
(1554630853.998024) can0 1FA#197A240000000000
(1554630853.999224) can0 0FF#001DC3B677000B6B
(1554630854.000916) can0 0DE#1BF997D00554
(1554630854.000917) can0 100#4EE1DC3B80000CCE
(1554630854.002398) can0 419#8A00000C00000000
(1554630854.002399) can0 256#0800007FC4420000
(1554630854.002400) can0 0FE#8007FF8000320493
(1554630854.002400) can0 101#000000041FC0048D
(1554630854.002401) can0 103#000003E8000004B7
(1554630854.003569) can0 190#00100000000008F6
(1554630854.003570) can0 1F0#001FE00000000000
(1554630854.003570) can0 1F1#FF0000000100024A
(1554630854.004595) can0 0F0#FFC00084BFF80D23
(1554630854.004596) can0 104#0000000600000DE2
(1554630854.004597) can0 1F7#000000B800000000
(1554630854.004597) can0 0F4#17E8770000001C05
(1554630854.004598) can0 0FB#000C1DC400000C30
(1554630854.006612) can0 0FA#40200000400800C6
(1554630854.006613) can0 1EF#880000000000098C
(1554630854.006613) can0 0FC#0000800018000CA1
(1554630854.006614) can0 1F4#000003C000000EB3
(1554630854.006615) can0 0EE#0000000000000563
(1554630854.008156) can0 116#0100000000000423
(1554630854.008157) can0 1F2#0000000000000230
(1554630854.008158) can0 1F8#40FF800000000C62
(1554630854.008159) can0 418#000000F1
(1554630854.008159) can0 2FA#00085600
(1554630854.008943) can0 4AF#0020000000000000
(1554630854.008944) can0 0FF#001DC3B677000C38
(1554630854.010532) can0 0DE#1BF997D00673
(1554630854.010536) can0 2ED#7500000000000000
(1554630854.010536) can0 100#4EE1DC3B80000DD3
(1554630854.010537) can0 15C#3200010000000C90
(1554630854.012505) can0 0FE#7FF800800032059D
(1554630854.012506) can0 101#000000041FC00590
(1554630854.012506) can0 103#000003E8000005AA
(1554630854.012507) can0 1F5#00003F0000
(1554630854.014362) can0 0F0#FFC00084BFF80E04
(1554630854.014363) can0 104#0000000600000EC5
(1554630854.014363) can0 0FB#000C1DC400000D2D
(1554630854.014364) can0 0F4#17E8770000001D18
(1554630854.016860) can0 0FA#40200000480800CA
(1554630854.016861) can0 2EC#0000000000000000
(1554630854.016862) can0 0FC#0000800018000DBC
(1554630854.016862) can0 412#0000023200
(1554630854.016863) can0 0EE#0000000000000644
(1554630854.018075) can0 116#010000000000053E
(1554630854.018076) can0 1FA#197A240000000000
(1554630854.018077) can0 7D0#00
(1554630854.019216) can0 0FF#001DC3B677000D25
(1554630854.020733) can0 0DE#1BF997D0076E
(1554630854.020734) can0 100#4EE1DC3B80000EF4
(1554630854.022854) can0 0FE#7FF80180003206D0
(1554630854.022855) can0 101#000000041FC006B7
(1554630854.022856) can0 103#000003E80000068D
(1554630854.022856) can0 1F0#001FE00000000000
(1554630854.022857) can0 1F1#FF00000001000357
(1554630854.024375) can0 0F0#FFC00084BFF80F19
(1554630854.024375) can0 104#0000000600000FD8
(1554630854.024376) can0 1F7#000000B800000000
(1554630854.024377) can0 0F4#17E8770000001E3F
(1554630854.024377) can0 0FB#000C1DC400000E0A
(1554630854.026962) can0 0FA#40200000500800DE
(1554630854.026963) can0 1EF#8800000000000AAB
(1554630854.026963) can0 0FC#0000800018000E9B
(1554630854.026964) can0 1F4#000003C000000FAE
(1554630854.027761) can0 0EE#0000000000000759
(1554630854.027762) can0 116#0100000000000619
(1554630854.027762) can0 1F2#000000000000032D
(1554630854.027763) can0 1F8#40FF800000000D7F
(1554630854.028636) can0 2FA#00094B00
(1554630854.028637) can0 0FF#001DC3B677000E02
(1554630854.030939) can0 0DE#1BF997D008D5
(1554630854.030940) can0 257#001E30718C400000
(1554630854.030940) can0 100#4EE1DC3B80000FE9
(1554630854.032206) can0 41A#A6C800A88EC660
(1554630854.032207) can0 0FE#8007FF80103207AC
(1554630854.032208) can0 101#000000041FC007AA
(1554630854.033243) can0 103#000003E800000790
(1554630854.033244) can0 1F5#00003F0000
(1554630854.034672) can0 0F0#FFC00084BFF800A2
(1554630854.034673) can0 104#0000000600000063
(1554630854.034674) can0 0FB#000C1DC400000F17
(1554630854.034674) can0 0F4#17E8770000001F22
(1554630854.036813) can0 0FA#40200000580800D2
(1554630854.036814) can0 7D0#00
(1554630854.036815) can0 0FC#0000800018000F86
(1554630854.036816) can0 0EE#00000000000008E2
(1554630854.037995) can0 116#0100000000000704
(1554630854.037996) can0 1FA#193A240000000000
(1554630854.039233) can0 0FF#001DC3B677000F1F
(1554630854.040441) can0 0DE#1BF997D009C8
(1554630854.040442) can0 100#4EE1DC3B80000052
(1554630854.042366) can0 2EE#8AA00000
(1554630854.042367) can0 41E#FFFDFFFEFF0000C0
(1554630854.042368) can0 0FE#8018008000320831
(1554630854.042368) can0 101#000000041FC00811
(1554630854.043179) can0 103#000003E80000082B
(1554630854.043180) can0 1F0#001FE00000000000
(1554630854.043181) can0 1F1#FF00000001000404
(1554630854.043181) can0 420#FF6FF6FF6FF60000
(1554630854.044679) can0 0F0#FFC00084BFF801BF
(1554630854.044680) can0 104#000000060000017E
(1554630854.044684) can0 1F7#000000B800000000
(1554630854.044685) can0 0F4#17E8770000001099
(1554630854.044686) can0 0FB#000C1DC4000000AC
(1554630854.045812) can0 2EF#0F71000000000000
(1554630854.046793) can0 0FA#40200000600800F6
(1554630854.046794) can0 1EF#8800000000000BB6
(1554630854.046795) can0 0FC#000080001800003D
(1554630854.046796) can0 1F4#000003C000000015
(1554630854.046796) can0 0EE#00000000000009FF
(1554630854.048150) can0 116#01000000000008BF
(1554630854.048151) can0 1F2#000000000000047E
(1554630854.048152) can0 1F8#40FF800000000E58
(1554630854.048152) can0 2FA#000A6C00
(1554630854.049150) can0 0FF#001DC3B6770000A4
(1554630854.050691) can0 0DE#1BF997D00AEF
(1554630854.050691) can0 100#4EE1DC3B8000014F
(1554630854.050692) can0 417#C30008A000000000
(1554630854.052863) can0 0FE#7FF8008000320901
(1554630854.052864) can0 101#000000041FC0090C
(1554630854.052864) can0 103#000003E800000936
(1554630854.052865) can0 190#00100000000009EB
(1554630854.052866) can0 1F5#00003F0000
(1554630854.054737) can0 0F0#FFC00084BFF80298
(1554630854.054738) can0 104#0000000600000259
(1554630854.054738) can0 0FB#000C1DC4000001B1
(1554630854.054739) can0 0F4#17E8770000001184
(1554630854.056896) can0 0FA#40200000680800FA
(1554630854.056898) can0 7D0#00
(1554630854.056898) can0 0FC#0000800018000120
(1554630854.056899) can0 0EE#0000000000000AD8
(1554630854.057900) can0 116#01000000000009A2
(1554630854.057901) can0 1FA#197A240000000000
(1554630854.059149) can0 0FF#001DC3B6770001B9
(1554630854.060929) can0 0DE#1BF997D00BF2
(1554630854.060930) can0 2ED#7500000000000000
(1554630854.060931) can0 100#4EE1DC3B80000268
(1554630854.062412) can0 259#0000009030000000
(1554630854.062413) can0 0FE#7FE8008000320A32
(1554630854.062413) can0 101#000000041FC00A2B
(1554630854.062414) can0 103#000003E800000A11
(1554630854.063339) can0 1F0#001FE00000000000
(1554630854.063340) can0 1F1#FF00000001000519
(1554630854.064588) can0 0F0#FFC00084BFF80385
(1554630854.064589) can0 104#0000000600000344
(1554630854.064589) can0 1F7#000000B800000000
(1554630854.064590) can0 0F4#17E87700000012A3
(1554630854.064591) can0 0FB#000C1DC400000296
(1554630854.067000) can0 0FA#40200000700800EE
(1554630854.067001) can0 1EF#8800000000000CE5
(1554630854.067001) can0 0FC#0000800018000207
(1554630854.067002) can0 1F4#000003C000000108
(1554630854.067002) can0 0EE#0000000000000BC5
(1554630854.068008) can0 116#0100000000000A85
(1554630854.068010) can0 1F2#0000000000000563
(1554630854.068010) can0 1F8#40FF800000000F45
(1554630854.068011) can0 2EC#0000000000000000
(1554630854.068011) can0 2FA#000B7100
(1554630854.069186) can0 0FF#001DC3B67700029E
(1554630854.069186) can0 736#0832323CC1000000
(1554630854.070835) can0 0DE#1BF997D00CA1
(1554630854.070836) can0 100#4EE1DC3B80000375
(1554630854.072813) can0 0FE#8008018000320B68
(1554630854.072814) can0 101#000000041FC00B36
(1554630854.072815) can0 103#000003E800000B0C
(1554630854.072815) can0 1F5#00003F0000
(1554630854.074735) can0 0F0#FFC00084BFF804D6
(1554630854.074736) can0 104#0000000600000417
(1554630854.074737) can0 0FB#000C1DC40000038B
(1554630854.074737) can0 0F4#17E87700000013BE
(1554630854.076924) can0 0FA#40200000780800E2
(1554630854.076925) can0 7D0#00
(1554630854.076926) can0 0FC#000080001800031A
(1554630854.076926) can0 0EE#0000000000000C96
(1554630854.077998) can0 116#0100000000000B98
(1554630854.077999) can0 1FA#197A240000000000
(1554630854.079231) can0 0FF#001DC3B677000383
(1554630854.080859) can0 0DE#1BF997D00DBC
(1554630854.080860) can0 100#4EE1DC3B80000426
(1554630854.082404) can0 416#0130304850453836
(1554630854.082405) can0 545#6817460780120000
(1554630854.082405) can0 0FE#8008028000320C85
(1554630854.082406) can0 101#000000041FC00C65
(1554630854.082406) can0 103#000003E800000C5F
(1554630854.083563) can0 1F0#001FE00000000000
(1554630854.083564) can0 1F1#FF0000000100063E
(1554630854.084659) can0 0F0#FFC00084BFF805CB
(1554630854.084660) can0 104#000000060000050A
(1554630854.084661) can0 1F7#000000B800000000
(1554630854.084661) can0 0F4#17E87700000014ED
(1554630854.084662) can0 0FB#000C1DC4000004D8
(1554630854.086996) can0 0FA#40200000000800A6
(1554630854.086997) can0 1EF#8800000000000DF8
(1554630854.086997) can0 0FC#0000800018000449
(1554630854.086998) can0 1F4#000003C00000022F
(1554630854.086999) can0 0EE#0000000000000D8B
(1554630854.088134) can0 116#0100000000000CCB
(1554630854.088135) can0 1F2#0000000000000644
(1554630854.088136) can0 1F8#40FF8000000000FE
(1554630854.088137) can0 41B#2720000001600000
(1554630854.088137) can0 2FA#000C2200
(1554630854.089265) can0 0FF#001DC3B6770004D0
(1554630854.090747) can0 0DE#1BF997D00E9B
(1554630854.090748) can0 100#4EE1DC3B8000053B
(1554630854.092562) can0 0FE#8018018000320D32
(1554630854.092563) can0 101#000000041FC00D78
(1554630854.092563) can0 103#000003E800000D42
(1554630854.092564) can0 1F5#00003F0000
(1554630854.094810) can0 0F0#FFC00084BFF806EC
(1554630854.094811) can0 104#000000060000062D
(1554630854.094811) can0 0FB#000C1DC4000005C5
(1554630854.094812) can0 0F4#17E87700000015F0
(1554630854.095642) can0 2EF#0F71000000000000
(1554630854.096833) can0 0FA#40200000080800AA
(1554630854.096834) can0 7D0#00
(1554630854.096835) can0 0FC#0000800018000554
(1554630854.096835) can0 0EE#0000000000000EAC
(1554630854.097984) can0 116#0100000000000DD6
(1554630854.097985) can0 1FA#197A240000000000
(1554630854.099235) can0 0FF#001DC3B6770005CD
(1554630854.100839) can0 0DE#1BF997D00F86
(1554630854.100840) can0 100#4EE1DC3B8000061C
(1554630854.102438) can0 419#8A00000C00000000
(1554630854.102439) can0 256#0800007FC4420000
(1554630854.102439) can0 0FE#8028008000320E43
(1554630854.102440) can0 101#000000041FC00E5F
(1554630854.102441) can0 103#000003E800000E65
(1554630854.103586) can0 190#0010000000000ACC
(1554630854.103587) can0 1F0#001FE00000000000
(1554630854.103587) can0 1F1#FF00000001000723
(1554630854.104593) can0 0F0#FFC00084BFF807F1
(1554630854.104595) can0 104#0000000600000730
(1554630854.104595) can0 1F7#000000B800000000
(1554630854.104596) can0 0F4#17E87700000016D7
(1554630854.104596) can0 0FB#000C1DC4000006E2
(1554630854.107008) can0 0FA#40200000100800BE
(1554630854.107009) can0 1EF#8800000000000EDF
(1554630854.107010) can0 0FC#0000800018000673
(1554630854.107010) can0 1F4#000003C000000332
(1554630854.107011) can0 0EE#0000000000000FB1
(1554630854.108028) can0 116#0100000000000EF1
(1554630854.108029) can0 1F2#0000000000000759
(1554630854.108030) can0 1F8#40FF8000000001E3
(1554630854.108030) can0 418#000001EC
(1554630854.108031) can0 2FA#000D3F00
(1554630854.109257) can0 0FF#001DC3B6770006EA
(1554630854.109258) can0 226#0000000000000000
(1554630854.110907) can0 0DE#1BF997D0003D
(1554630854.110908) can0 2ED#7500000000000000
(1554630854.110909) can0 100#4EE1DC3B80000701
(1554630854.110909) can0 15C#3200010000000D8D
(1554630854.112302) can0 73E#02008000
(1554630854.112303) can0 0FE#8018008000320F62
(1554630854.112304) can0 101#000000041FC00F42
(1554630854.113208) can0 103#000003E800000F78
(1554630854.113209) can0 1F5#00003F0000
(1554630854.114694) can0 0F0#FFC00084BFF8084A
(1554630854.114695) can0 104#000000060000088B
(1554630854.114696) can0 0FB#000C1DC4000007FF
(1554630854.114696) can0 0F4#17E87700000017CA
(1554630854.117000) can0 0FA#40200000180800B2
(1554630854.117001) can0 2EC#0000000000000000
(1554630854.117001) can0 0FC#000080001800076E
(1554630854.117002) can0 412#0000023200
(1554630854.117002) can0 0EE#000000000000000A
(1554630854.118072) can0 116#0100000000000FEC
(1554630854.118073) can0 1FA#197A240000000000
(1554630854.118074) can0 7D0#00
(1554630854.119212) can0 0FF#001DC3B6770007F7
(1554630854.120737) can0 0DE#1BF897D001BD
(1554630854.120738) can0 100#4EE1DC3B800008BA
(1554630854.122851) can0 0FE#80080080003200CD
(1554630854.122852) can0 101#000000041FC000F9
(1554630854.122852) can0 103#000003E8000000C3
(1554630854.122853) can0 1F0#001FE00000000000
(1554630854.122854) can0 1F1#FF00000001000898
(1554630854.124734) can0 0F0#FFC00084BFF80957
(1554630854.124735) can0 104#0000000600000996
(1554630854.124736) can0 1F7#000000B800000000
(1554630854.124736) can0 0F4#17E8770000001871
(1554630854.124737) can0 0FB#000C1DC400000844
(1554630854.126986) can0 0FA#4020000020080096
(1554630854.126987) can0 1EF#8800000000000FC2
(1554630854.126988) can0 0FC#00008000180008D5
(1554630854.126988) can0 1F4#000003C000000461
(1554630854.126989) can0 0EE#0000000000000117
(1554630854.128135) can0 116#0100000000000057
(1554630854.128136) can0 1F2#00000000000008E2
(1554630854.128137) can0 1F8#40FF8000000002C4
(1554630854.128138) can0 2FA#000E1800
(1554630854.129233) can0 0FF#001DC3B67700084C
(1554630854.130756) can0 0DE#1BF997D00207
(1554630854.130757) can0 100#4EE1DC3B800009A7
(1554630854.130758) can0 15A#8000020B
(1554630854.130758) can0 257#001E30718C400000
(1554630854.132422) can0 41A#A6C800A88EC660
(1554630854.132423) can0 0FE#7FF80080003201E9
(1554630854.132423) can0 101#000000041FC001E4
(1554630854.132424) can0 103#000003E8000001DE
(1554630854.133334) can0 1F5#00003F0000
(1554630854.133335) can0 5E0#0043890000000D2F
(1554630854.134293) can0 0F0#FFC00084BFF80A70
(1554630854.134294) can0 104#0000000600000AB1
(1554630854.134295) can0 0FB#000C1DC400000959
(1554630854.134295) can0 0F4#17E877000000196C
(1554630854.136688) can0 0FA#402000002808009A
(1554630854.136689) can0 7D0#00
(1554630854.136690) can0 0FC#00008000180009C8
(1554630854.136690) can0 0EE#0000000000000230
(1554630854.138055) can0 116#010000000000014A
(1554630854.138056) can0 1FA#197A240000000000
(1554630854.139215) can0 0FF#001DC3B677000951
(1554630854.140727) can0 0DE#1BF997D0031A
(1554630854.140728) can0 100#4EE1DC3B80000A80
(1554630854.142340) can0 2EE#8A600000
(1554630854.142341) can0 5A6#800242E95F400000
(1554630854.142341) can0 0FE#8007FD8000320209
(1554630854.142342) can0 101#000000041FC002C3
(1554630854.142343) can0 103#000003E8000002F9
(1554630854.143488) can0 1F0#001FE00000000000
(1554630854.143492) can0 1F1#FF00000001000985
(1554630854.143493) can0 41E#FFFDFFFEFF0000C0
(1554630854.143493) can0 420#FF6FF6FF6FF60000
(1554630854.144700) can0 0F0#FFC00084BFF80B6D
(1554630854.144701) can0 104#0000000600000BAC
(1554630854.144702) can0 1F7#000000B800000000
(1554630854.144702) can0 0F4#17E8770000001A4B
(1554630854.144703) can0 0FB#000C1DC400000A7E
(1554630854.145798) can0 2EF#0F71000000000000
(1554630854.145799) can0 0FA#402000003008008E
(1554630854.147116) can0 1EF#8800000000000079
(1554630854.147117) can0 0FC#0000800018000AEF
(1554630854.147118) can0 1F4#000003C00000057C
(1554630854.147118) can0 0EE#000000000000032D
(1554630854.147119) can0 116#010000000000026D
(1554630854.148353) can0 1F2#00000000000009FF
(1554630854.148354) can0 1F8#40FF8000000003D9
(1554630854.148355) can0 2FA#000F0500
(1554630854.148355) can0 0FF#001DC3B677000A76
(1554630854.150830) can0 0DE#1BF997D00449
(1554630854.150831) can0 100#4EE1DC3B80000B9D
(1554630854.150831) can0 417#C30008A000000000
(1554630854.152844) can0 0FE#7FF7FE8000320393
(1554630854.152845) can0 101#000000041FC003DE
(1554630854.152845) can0 103#000003E8000003E4
(1554630854.152846) can0 190#0010000000000BD1
(1554630854.152847) can0 1F5#00003F0000
(1554630854.154758) can0 0F0#FFC00084BFF80C3E
(1554630854.154759) can0 104#0000000600000CFF
(1554630854.154759) can0 0FB#000C1DC400000B63
(1554630854.154760) can0 0F4#17E8770000001B56
(1554630854.156985) can0 0FA#4020000038080082
(1554630854.156987) can0 7D0#00
(1554630854.156987) can0 0FC#0000800018000BF2
(1554630854.156988) can0 0EE#000000000000047E
(1554630854.158020) can0 116#0100000000000370
(1554630854.158021) can0 1FA#197A240000000000
(1554630854.159223) can0 0FF#001DC3B677000B6B
(1554630854.160699) can0 0DE#1BF997D00554
(1554630854.160700) can0 2ED#7500000000000000
(1554630854.160701) can0 100#4EE1DC3B80000CCE
(1554630854.162519) can0 259#0000009030000000
(1554630854.162520) can0 0FE#7FF80180003204EA
(1554630854.162521) can0 101#000000041FC0048D
(1554630854.162522) can0 103#000003E8000004B7
(1554630854.163418) can0 1F0#001FE00000000000
(1554630854.163419) can0 1F1#FF00000001000AA2
(1554630854.164592) can0 0F0#FFC00084BFF80D23
(1554630854.164593) can0 104#0000000600000DE2
(1554630854.164594) can0 1F7#000000B800000000
(1554630854.164595) can0 0F4#17E8770000001C05
(1554630854.164595) can0 0FB#000C1DC400000C30
(1554630854.167003) can0 0FA#40200000400800C6
(1554630854.167004) can0 2EC#0000000000000000
(1554630854.167004) can0 0FC#0000800018000CA1
(1554630854.167005) can0 1EF#8800000000000164
(1554630854.167006) can0 0EE#0000000000000563
(1554630854.168009) can0 116#0100000000000423
(1554630854.168010) can0 1F2#0000000000000AD8
(1554630854.168011) can0 1F4#000003C00000065B
(1554630854.168011) can0 1F8#40FF80000000048A
(1554630854.169077) can0 2FA#0000BE00
(1554630854.169078) can0 0FF#001DC3B677000C38
(1554630854.169078) can0 736#0832323CC1000000
(1554630854.170716) can0 0DE#1BF997D00673
(1554630854.170717) can0 100#4EE1DC3B80000DD3
(1554630854.172855) can0 0FE#8007FF800032058E
(1554630854.172856) can0 101#000000041FC00590
(1554630854.172857) can0 103#000003E8000005AA
(1554630854.172857) can0 1F5#00003F0000
(1554630854.174788) can0 0F0#FFC00084BFF80E04
(1554630854.174789) can0 104#0000000600000EC5
(1554630854.174790) can0 158#000006BF
(1554630854.174794) can0 0F4#17E8770000001D18
(1554630854.174794) can0 0FB#000C1DC400000D2D
(1554630854.177126) can0 0FA#40200000480800CA
(1554630854.177127) can0 7D0#00
(1554630854.177128) can0 0FC#0000800018000DBC
(1554630854.177128) can0 0EE#0000000000000644
(1554630854.177955) can0 116#010000000000053E
(1554630854.177956) can0 1FA#193A240000000000
(1554630854.179236) can0 0FF#001DC3B677000D25
(1554630854.180836) can0 0DE#1BF997D0076E
(1554630854.180837) can0 100#4EE1DC3B80000EF4
(1554630854.182469) can0 416#0235353400000000
(1554630854.182470) can0 0FE#8007FE80003206C3
(1554630854.182470) can0 101#000000041FC006B7
(1554630854.182471) can0 103#000003E80000068D
(1554630854.183456) can0 1F0#001FE00000000000
(1554630854.183457) can0 1F1#FF00000001000BBF
(1554630854.184617) can0 0F0#FFC00084BFF80F19
(1554630854.184618) can0 104#0000000600000FD8
(1554630854.184618) can0 1F7#000000B800000000
(1554630854.184619) can0 0F4#17E8770000001E3F
(1554630854.184619) can0 0FB#000C1DC400000E0A
(1554630854.187000) can0 0FA#40200000500800DE
(1554630854.187001) can0 1EF#8800000000000243
(1554630854.187001) can0 0FC#0000800018000E9B
(1554630854.187002) can0 1F4#000003C000000746
(1554630854.187003) can0 0EE#0000000000000759
(1554630854.188060) can0 116#0100000000000619
(1554630854.188061) can0 1F2#0000000000000BC5
(1554630854.188062) can0 1F8#40FF800000000597
(1554630854.188062) can0 41B#2720000001600000
(1554630854.188063) can0 2FA#0001A300
(1554630854.189306) can0 0FF#001DC3B677000E02
(1554630854.190677) can0 0DE#1BF997D008D5
(1554630854.190678) can0 100#4EE1DC3B80000FE9
(1554630854.192873) can0 0FE#8017FF80003207A0
(1554630854.192874) can0 101#000000041FC007AA
(1554630854.192875) can0 103#000003E800000790
(1554630854.192875) can0 1F5#00003F0000
(1554630854.194756) can0 0F0#FFC00084BFF800A2
(1554630854.194757) can0 104#0000000600000063
(1554630854.194757) can0 0FB#000C1DC400000F17
(1554630854.194758) can0 0F4#17E8770000001F22
(1554630854.195655) can0 2EF#0F71000000000000
(1554630854.196646) can0 0FA#40200000580800D2
(1554630854.196647) can0 7D0#00
(1554630854.196647) can0 0FC#0000800018000F86
(1554630854.196648) can0 0EE#00000000000008E2
(1554630854.198051) can0 116#0100000000000704
(1554630854.198052) can0 1FA#197A240000000000
(1554630854.199248) can0 0FF#001DC3B677000F1F
(1554630854.200692) can0 0DE#1BF997D009C8
(1554630854.200693) can0 100#4EE1DC3B80000052
(1554630854.202492) can0 384#081DAA8800C00000
(1554630854.202493) can0 256#0800007FC4420000
(1554630854.202493) can0 0FE#8007FF800032080F
(1554630854.202494) can0 101#000000041FC00811
(1554630854.202495) can0 103#000003E80000082B
(1554630854.203603) can0 190#0010000000000C82
(1554630854.203604) can0 1F0#001FE00000000000
(1554630854.203604) can0 1F1#FF00000001000CEC
(1554630854.203605) can0 419#8A00000C00000000
(1554630854.204681) can0 0F0#FFC00084BFF801BF
(1554630854.204682) can0 104#000000060000017E
(1554630854.204683) can0 1F7#000000B800000000
(1554630854.204683) can0 0F4#17E8770000001099
(1554630854.204684) can0 0FB#000C1DC4000000AC
(1554630854.206992) can0 0FA#40200000600800F6
(1554630854.206993) can0 1EF#880000000000035E
(1554630854.206994) can0 0FC#000080001800003D
(1554630854.206994) can0 1F4#000003C0000008FD
(1554630854.206995) can0 0EE#00000000000009FF
(1554630854.208104) can0 116#01000000000008BF
(1554630854.208108) can0 1F2#0000000000000C96
(1554630854.208109) can0 1F8#40FF8000000006B0
(1554630854.208110) can0 418#000002CB
(1554630854.208110) can0 2FA#00028400
(1554630854.209297) can0 0FF#001DC3B6770000A4
(1554630854.210676) can0 0DE#1BF897D00A72
(1554630854.210678) can0 2ED#7500000000000000
(1554630854.210678) can0 100#4EE1DC3B8000014F
(1554630854.211671) can0 15C#3200010000000EAA
(1554630854.212524) can0 0FE#8008008000320938
(1554630854.212525) can0 101#000000041FC0090C
(1554630854.212526) can0 103#000003E800000936
(1554630854.212527) can0 1F5#00003F0000
(1554630854.214413) can0 0F0#FFC00084BFF80298
(1554630854.214414) can0 104#0000000600000259
(1554630854.214414) can0 0FB#000C1DC4000001B1
(1554630854.214415) can0 0F4#17E8770000001184
(1554630854.216743) can0 0FA#40200000680800FA
(1554630854.216744) can0 2EC#0000000000000000
(1554630854.216744) can0 0FC#0000800018000120
(1554630854.216745) can0 412#0000023200
(1554630854.216745) can0 0EE#0000000000000AD8
(1554630854.218153) can0 116#01000000000009A2
(1554630854.218154) can0 1FA#197A240000000000
(1554630854.218155) can0 7D0#00
(1554630854.219192) can0 0FF#001DC3B6770001B9
(1554630854.220702) can0 0DE#1BF997D00BF2
(1554630854.220703) can0 100#4EE1DC3B80000268
(1554630854.222855) can0 0FE#8008008000320A1F
(1554630854.222856) can0 101#000000041FC00A2B
(1554630854.222857) can0 103#000003E800000A11
(1554630854.222857) can0 1F0#001FE00000000000
(1554630854.222858) can0 1F1#FF00000001000DF1
(1554630854.224729) can0 0F0#FFC00084BFF80385
(1554630854.224730) can0 104#0000000600000344
(1554630854.224730) can0 1F7#000000B800000000
(1554630854.224731) can0 0F4#17E87700000012A3
(1554630854.224732) can0 0FB#000C1DC400000296
(1554630854.226987) can0 0FA#40200000700800EE
(1554630854.226988) can0 1EF#880000000000040D
(1554630854.226988) can0 0FC#0000800018000207
(1554630854.226989) can0 1F4#000003C0000009E0
(1554630854.226990) can0 0EE#0000000000000BC5
(1554630854.228090) can0 116#0100000000000A85
(1554630854.228091) can0 1F2#0000000000000D8B
(1554630854.228092) can0 1F8#40FF8000000007AD
(1554630854.228092) can0 2FA#00039900
(1554630854.228974) can0 0FF#001DC3B67700029E
(1554630854.230351) can0 0DE#1BF997D00CA1
(1554630854.230352) can0 257#001E30718C400000
(1554630854.230353) can0 100#4EE1DC3B80000375
(1554630854.232231) can0 41A#A6C800A88EC660
(1554630854.232232) can0 0FE#7FF8008000320B3B
(1554630854.232232) can0 101#000000041FC00B36
(1554630854.233246) can0 103#000003E800000B0C
(1554630854.233247) can0 1F5#00003F0000
(1554630854.234717) can0 0F0#FFC00084BFF804D6
(1554630854.234719) can0 104#0000000600000417
(1554630854.234719) can0 0FB#000C1DC40000038B
(1554630854.234720) can0 0F4#17E87700000013BE
(1554630854.236992) can0 0FA#40200000780800E2
(1554630854.236993) can0 7D0#00
(1554630854.236993) can0 0FC#000080001800031A
(1554630854.236994) can0 0EE#0000000000000C96
(1554630854.237950) can0 116#0100000000000B98
(1554630854.237951) can0 1FA#197A240000000000
(1554630854.239267) can0 0FF#001DC3B677000383
(1554630854.240656) can0 0DE#1BF997D00DBC
(1554630854.240657) can0 100#4EE1DC3B80000426
(1554630854.242350) can0 2EE#8A600000
(1554630854.242351) can0 41E#FFFDFFFEFF0000C0
(1554630854.242352) can0 0FE#7FF7FF8000320C42
(1554630854.242352) can0 101#000000041FC00C65
(1554630854.243275) can0 103#000003E800000C5F
(1554630854.243276) can0 1F0#001FE00000000000
(1554630854.243277) can0 1F1#FF00000001000ED6
(1554630854.243277) can0 420#FF6FF6FF6FF60000
(1554630854.244656) can0 0F0#FFC00084BFF805CB
(1554630854.244657) can0 104#000000060000050A
(1554630854.244658) can0 1F7#000000B800000000
(1554630854.244658) can0 0F4#17E87700000014ED
(1554630854.244659) can0 0FB#000C1DC4000004D8
(1554630854.245816) can0 2EF#0F71000000000000
(1554630854.246791) can0 0FA#40200000000800A6
(1554630854.246792) can0 1EF#8800000000000510
(1554630854.246793) can0 0FC#0000800018000449
(1554630854.246793) can0 1F4#000003C000000AC7
(1554630854.246794) can0 0EE#0000000000000D8B
(1554630854.248110) can0 116#0100000000000CCB
(1554630854.248111) can0 1F2#0000000000000EAC
(1554630854.248112) can0 1F8#40FF800000000816
(1554630854.248112) can0 2FA#0004CA00
(1554630854.249268) can0 0FF#001DC3B6770004D0
(1554630854.250652) can0 0DE#1BF997D00E9B
(1554630854.250653) can0 100#4EE1DC3B8000053B
(1554630854.250654) can0 417#C30008A000000000
(1554630854.252870) can0 0FE#8008008000320D4C
(1554630854.252871) can0 101#000000041FC00D78
(1554630854.252871) can0 103#000003E800000D42
(1554630854.252872) can0 190#0010000000000D9F
(1554630854.252873) can0 1F5#00003F0000
(1554630854.254755) can0 0F0#FFC00084BFF806EC
(1554630854.254756) can0 104#000000060000062D
(1554630854.254757) can0 0FB#000C1DC4000005C5
(1554630854.254758) can0 0F4#17E87700000015F0
(1554630854.256987) can0 0FA#40200000080800AA
(1554630854.256988) can0 7D0#00
(1554630854.256988) can0 0FC#0000800018000554
(1554630854.256989) can0 0EE#0000000000000EAC
(1554630854.257695) can0 116#0100000000000DD6
(1554630854.257696) can0 1FA#197A240000000000
(1554630854.257697) can0 5AD#FB00000000000000
(1554630854.259314) can0 0FF#001DC3B6770005CD
(1554630854.260679) can0 0DE#1BF997D00F86
(1554630854.260680) can0 2ED#7500000000000000
(1554630854.260681) can0 100#4EE1DC3B8000061C
(1554630854.262523) can0 259#0000009030000000
(1554630854.262524) can0 0FE#8017FD8000320E81
(1554630854.262525) can0 101#000000041FC00E5F
(1554630854.262526) can0 103#000003E800000E65
(1554630854.263448) can0 1F0#001FE00000000000
(1554630854.263449) can0 1F1#FF00000001000FCB
(1554630854.264715) can0 0F0#FFC00084BFF807F1
(1554630854.264716) can0 104#0000000600000730
(1554630854.264717) can0 1F7#000000B800000000
(1554630854.264717) can0 0F4#17E87700000016D7
(1554630854.264718) can0 0FB#000C1DC4000006E2
(1554630854.267127) can0 0FA#40200000100800BE
(1554630854.267128) can0 1EF#8800000000000637
(1554630854.267129) can0 0FC#0000800018000673
(1554630854.267129) can0 1F4#000003C000000BDA
(1554630854.267130) can0 0EE#0000000000000FB1
(1554630854.268167) can0 116#0100000000000EF1
(1554630854.268167) can0 1F2#0000000000000FB1
(1554630854.268168) can0 1F8#40FF80000000090B
(1554630854.268169) can0 2EC#0000000000000000
(1554630854.268169) can0 2FA#0005D700
(1554630854.269304) can0 0FF#001DC3B6770006EA
(1554630854.269305) can0 736#0832323CC1000000
(1554630854.270679) can0 0DE#1BF997D0003D
(1554630854.270680) can0 100#4EE1DC3B80000701
(1554630854.272871) can0 0FE#7FF7FD8000320FB1
(1554630854.272872) can0 101#000000041FC00F42
(1554630854.272872) can0 103#000003E800000F78
(1554630854.272873) can0 1F5#00003F0000
(1554630854.274750) can0 0F0#FFC00084BFF8084A
(1554630854.274754) can0 104#000000060000088B
(1554630854.274755) can0 0FB#000C1DC4000007FF
(1554630854.274756) can0 0F4#17E87700000017CA
(1554630854.277150) can0 0FA#40200000180800B2
(1554630854.277151) can0 7D0#00
(1554630854.277152) can0 0FC#000080001800076E
(1554630854.277152) can0 0EE#000000000000000A
(1554630854.277918) can0 116#0100000000000FEC
(1554630854.277919) can0 1FA#193A240000000000
(1554630854.279276) can0 0FF#001DC3B6770007F7
(1554630854.280685) can0 0DE#1BF997D00120
(1554630854.280686) can0 100#4EE1DC3B800008BA
(1554630854.282527) can0 416#0031433442553030
(1554630854.282528) can0 0FE#7FC80080003200C8
(1554630854.282529) can0 101#000000041FC000F9
(1554630854.282529) can0 103#000003E8000000C3
(1554630854.283418) can0 1F0#001FE00000000000
(1554630854.283419) can0 1F1#FF00000001000070
(1554630854.284657) can0 0F0#FFC00084BFF80957
(1554630854.284658) can0 104#0000000600000996
(1554630854.284658) can0 1F7#000000B800000000
(1554630854.284659) can0 0F4#17E8770000001871
(1554630854.284660) can0 0FB#000C1DC400000844
(1554630854.287156) can0 0FA#4020000020080096
(1554630854.287157) can0 1EF#880000000000072A
(1554630854.287158) can0 0FC#00008000180008D5
(1554630854.287158) can0 1F4#000003C000000C89
(1554630854.287159) can0 0EE#0000000000000117
(1554630854.288159) can0 116#0100000000000057
(1554630854.288160) can0 1F2#000000000000000A
(1554630854.288160) can0 1F8#40FF800000000A2C
(1554630854.288161) can0 41B#2720000001600000
(1554630854.288162) can0 2FA#0006F000
(1554630854.289314) can0 0FF#001DC3B67700084C
(1554630854.290647) can0 0DE#1BF997D00207
(1554630854.290648) can0 100#4EE1DC3B800009A7
(1554630854.292835) can0 0FE#7FE7FF80003201D7
(1554630854.292836) can0 101#000000041FC001E4
(1554630854.292837) can0 103#000003E8000001DE
(1554630854.292837) can0 1F5#00003F0000
(1554630854.294792) can0 0F0#FFC00084BFF80A70
(1554630854.294792) can0 104#0000000600000AB1
(1554630854.294793) can0 0FB#000C1DC400000959
(1554630854.294794) can0 0F4#17E877000000196C
(1554630854.295639) can0 2EF#0F71000000000000
(1554630854.297001) can0 0FA#402000002808009A
(1554630854.297002) can0 7D0#00
(1554630854.297002) can0 0FC#00008000180009C8
(1554630854.297003) can0 1E360043#05
(1554630854.297003) can0 0EE#0000000000000230
(1554630854.298042) can0 116#010000000000014A
(1554630854.298043) can0 1FA#197A240000000000
(1554630854.298963) can0 0FF#001DC3B677000951
(1554630854.300743) can0 0DE#1BF997D0031A
(1554630854.300744) can0 100#4EE1DC3B80000A80
(1554630854.300744) can0 1E360039#05
(1554630854.302508) can0 256#0800007FC4420000
(1554630854.302509) can0 419#8A00000C00000000
(1554630854.302510) can0 0FE#80080080003202F7
(1554630854.302510) can0 101#000000041FC002C3
(1554630854.302511) can0 103#000003E8000002F9
(1554630854.303626) can0 190#0010000000000EB8
(1554630854.303627) can0 1F0#001FE00000000000
(1554630854.303627) can0 1F1#FF0000000100016D
(1554630854.303628) can0 5A5#0000000000000000
(1554630854.303628) can0 0F0#FFC00084BFF80B6D
(1554630854.304827) can0 104#0000000600000BAC
(1554630854.304828) can0 1F7#000000B800000000
(1554630854.304829) can0 0F4#17E8770000001A4B
(1554630854.304830) can0 0FB#000C1DC400000A7E
(1554630854.307075) can0 0FA#402000003008008E
(1554630854.307076) can0 1EF#8800000000000891
(1554630854.307076) can0 0FC#0000800018000AEF
(1554630854.307080) can0 1F4#000003C000000D94
(1554630854.307080) can0 0EE#000000000000032D
(1554630854.308177) can0 116#010000000000026D
(1554630854.308178) can0 1F2#0000000000000117
(1554630854.308179) can0 1F8#40FF800000000B31
(1554630854.308179) can0 418#000003D6
(1554630854.308180) can0 2FA#0007ED00
(1554630854.309294) can0 0FF#001DC3B677000A76
(1554630854.310648) can0 0DE#1BF997D00449
(1554630854.310649) can0 2ED#7500000000000000
(1554630854.310649) can0 100#4EE1DC3B80000B9D
(1554630854.311671) can0 15C#3200010000000FB7
(1554630854.312523) can0 0FE#8008018000320380
(1554630854.312524) can0 101#000000041FC003DE
(1554630854.312525) can0 103#000003E8000003E4
(1554630854.312525) can0 1F5#00003F0000
(1554630854.314442) can0 0F0#FFC00084BFF80C3E
(1554630854.314443) can0 104#0000000600000CFF
(1554630854.314444) can0 0FB#000C1DC400000B63
(1554630854.314444) can0 0F4#17E8770000001B56
(1554630854.317169) can0 0FA#4020000038080082
(1554630854.317170) can0 2EC#0000000000000000
(1554630854.317171) can0 0FC#0000800018000BF2
(1554630854.317171) can0 412#0000023200
(1554630854.317172) can0 0EE#000000000000047E
(1554630854.318122) can0 116#0100000000000370
(1554630854.318123) can0 1FA#197A240000000000
(1554630854.318124) can0 7D0#00
(1554630854.319230) can0 0FF#001DC3B677000B6B
(1554630854.320689) can0 0DE#1BF997D00554
(1554630854.320690) can0 100#4EE1DC3B80000CCE
(1554630854.322853) can0 0FE#8017FD8000320453
(1554630854.322854) can0 101#000000041FC0048D
(1554630854.322855) can0 103#000003E8000004B7
(1554630854.322855) can0 1F0#001FE00000000000
(1554630854.322856) can0 1F1#FF0000000100024A
(1554630854.323775) can0 1E360016#05
(1554630854.323775) can0 0F0#FFC00084BFF80D23
(1554630854.324956) can0 104#0000000600000DE2
(1554630854.324957) can0 1F7#000000B800000000
(1554630854.324958) can0 0F4#17E8770000001C05
(1554630854.324958) can0 0FB#000C1DC400000C30
(1554630854.327117) can0 0FA#40200000400800C6
(1554630854.327118) can0 1EF#880000000000098C
(1554630854.327119) can0 0FC#0000800018000CA1
(1554630854.327120) can0 1F4#000003C000000EB3
(1554630854.327121) can0 0EE#0000000000000563
(1554630854.328167) can0 116#0100000000000423
(1554630854.328168) can0 1F2#0000000000000230
(1554630854.328169) can0 1F8#40FF800000000C62
(1554630854.328169) can0 2FA#00085600
(1554630854.329286) can0 0FF#001DC3B677000C38
(1554630854.330618) can0 0DE#1BF997D00673
(1554630854.330619) can0 257#001E30718C400000
(1554630854.330619) can0 100#4EE1DC3B80000DD3
(1554630854.332388) can0 41A#A6C800A88EC660
(1554630854.332389) can0 545#6817460780120000
(1554630854.332389) can0 0FE#7FF7FE80003205DD
(1554630854.332390) can0 101#000000041FC00590
(1554630854.332391) can0 103#000003E8000005AA
(1554630854.333175) can0 1F5#00003F0000
(1554630854.334351) can0 0F0#FFC00084BFF80E04
(1554630854.334352) can0 104#0000000600000EC5
(1554630854.334352) can0 0FB#000C1DC400000D2D
(1554630854.334353) can0 0F4#17E8770000001D18
(1554630854.337169) can0 0FA#40200000480800CA
(1554630854.337170) can0 7D0#00
(1554630854.337170) can0 0FC#0000800018000DBC
(1554630854.337171) can0 0EE#0000000000000644
(1554630854.337928) can0 116#010000000000053E
(1554630854.337929) can0 1FA#197A240000000000
(1554630854.339271) can0 0FF#001DC3B677000D25
(1554630854.340361) can0 0DE#1BF997D0076E
(1554630854.340365) can0 100#4EE1DC3B80000EF4
(1554630854.342465) can0 2EE#8AE00000
(1554630854.342466) can0 41E#FFFDFFFEFF0000C0
(1554630854.342466) can0 0FE#7FF80080003206BA
(1554630854.342467) can0 101#000000041FC006B7
(1554630854.343277) can0 103#000003E80000068D
(1554630854.343278) can0 1F0#001FE00000000000
(1554630854.343279) can0 1F1#FF00000001000357
(1554630854.343280) can0 420#FF6FF6FF6FF60000
(1554630854.344651) can0 0F0#FFC00084BFF80F19
(1554630854.344652) can0 104#0000000600000FD8
(1554630854.344653) can0 1F7#000000B800000000
(1554630854.344654) can0 0F4#17E8770000001E3F
(1554630854.344654) can0 0FB#000C1DC400000E0A
(1554630854.345820) can0 2EF#0F71000000000000
(1554630854.346959) can0 0FA#40200000500800DE
(1554630854.346960) can0 1EF#8800000000000AAB
(1554630854.346961) can0 0FC#0000800018000E9B
(1554630854.346962) can0 1F4#000003C000000FAE
(1554630854.346962) can0 0EE#0000000000000759
(1554630854.348201) can0 116#0100000000000619
(1554630854.348202) can0 1F2#000000000000032D
(1554630854.348202) can0 1F8#40FF800000000D7F
(1554630854.348203) can0 2FA#00094B00
(1554630854.349207) can0 0FF#001DC3B677000E02
(1554630854.350660) can0 0DE#1BF997D008D5
(1554630854.350661) can0 100#4EE1DC3B80000FE9
(1554630854.350662) can0 417#C30008A000000000
(1554630854.352374) can0 5A6#800232E55FC00000
(1554630854.352375) can0 0FE#801800800032078A
(1554630854.352376) can0 101#000000041FC007AA
(1554630854.352377) can0 103#000003E800000790
(1554630854.353501) can0 190#0010000000000FA5
(1554630854.353502) can0 1F5#00003F0000
(1554630854.354607) can0 0F0#FFC00084BFF800A2
(1554630854.354608) can0 104#0000000600000063
(1554630854.354608) can0 0FB#000C1DC400000F17
(1554630854.354609) can0 0F4#17E8770000001F22
(1554630854.356736) can0 0FA#40200000580800D2
(1554630854.356737) can0 7D0#00
(1554630854.356738) can0 0FC#0000800018000F86
(1554630854.356738) can0 0EE#00000000000008E2
(1554630854.358038) can0 116#0100000000000704
(1554630854.358039) can0 1FA#197A240000000000
(1554630854.359249) can0 0FF#001DC3B677000F1F
(1554630854.360727) can0 0DE#1BF997D009C8
(1554630854.360728) can0 2ED#7500000000000000
(1554630854.360729) can0 100#4EE1DC3B80000052
(1554630854.362513) can0 259#0000009030000000
(1554630854.362514) can0 73E#02008000
(1554630854.362515) can0 0FE#7FF8018000320876
(1554630854.362516) can0 101#000000041FC00811
(1554630854.362516) can0 103#000003E80000082B
(1554630854.363566) can0 1F0#001FE00000000000
(1554630854.363567) can0 1F1#FF00000001000404
(1554630854.364589) can0 0F0#FFC00084BFF801BF
(1554630854.364591) can0 104#000000060000017E
(1554630854.364591) can0 1F7#000000B800000000
(1554630854.364592) can0 0F4#17E8770000001099
(1554630854.364592) can0 0FB#000C1DC4000000AC
(1554630854.367120) can0 0FA#40200000600800F6
(1554630854.367121) can0 1EF#8800000000000BB6
(1554630854.367121) can0 0FC#000080001800003D
(1554630854.367122) can0 1F4#000003C000000015
(1554630854.367123) can0 0EE#00000000000009FF
(1554630854.368193) can0 116#01000000000008BF
(1554630854.368194) can0 1F2#000000000000047E
(1554630854.368195) can0 1F8#40FF800000000E58
(1554630854.368196) can0 2EC#0000000000000000
(1554630854.368196) can0 2FA#000A6C00
(1554630854.369395) can0 0FF#001DC3B6770000A4
(1554630854.369396) can0 736#0832323CC1000000
(1554630854.370594) can0 0DE#1BF997D00AEF
(1554630854.370598) can0 100#4EE1DC3B8000014F
(1554630854.372881) can0 0FE#7FD7FF8000320903
(1554630854.372882) can0 101#000000041FC0090C
(1554630854.372883) can0 103#000003E800000936
(1554630854.372883) can0 1F5#00003F0000
(1554630854.374747) can0 0F0#FFC00084BFF80298
(1554630854.374748) can0 104#0000000600000259
(1554630854.374749) can0 0FB#000C1DC4000001B1
(1554630854.374750) can0 0F4#17E8770000001184
(1554630854.377084) can0 0FA#40200000680800FA
(1554630854.377085) can0 7D0#00
(1554630854.377086) can0 0FC#0000800018000120
(1554630854.377086) can0 0EE#0000000000000AD8
(1554630854.377087) can0 116#01000000000009A2
(1554630854.378142) can0 1FA#193A240000000000
(1554630854.379127) can0 0FF#001DC3B6770001B9
(1554630854.380587) can0 0DE#1BF997D00BF2
(1554630854.380588) can0 100#4EE1DC3B80000268
(1554630854.380588) can0 5A7#2000000000000AB7
(1554630854.382248) can0 416#0130304850453836
(1554630854.382249) can0 0FE#7FF7FF8000320A0C
(1554630854.382249) can0 101#000000041FC00A2B
(1554630854.382250) can0 103#000003E800000A11
(1554630854.383433) can0 1F0#001FE00000000000
(1554630854.383434) can0 1F1#FF00000001000519
(1554630854.383435) can0 5E0#0043890000000E08
(1554630854.384616) can0 0F0#FFC00084BFF80385
(1554630854.384617) can0 104#0000000600000344
(1554630854.384617) can0 1F7#000000B800000000
(1554630854.384618) can0 0F4#17E87700000012A3
(1554630854.384619) can0 0FB#000C1DC400000296
(1554630854.386998) can0 0FA#40200000700800EE
(1554630854.386999) can0 1EF#8800000000000CE5
(1554630854.387000) can0 0FC#0000800018000207
(1554630854.387000) can0 1F4#000003C000000108
(1554630854.387001) can0 0EE#0000000000000BC5
(1554630854.388126) can0 116#0100000000000A85
(1554630854.388127) can0 1F2#0000000000000563
(1554630854.388127) can0 1F8#40FF800000000F45
(1554630854.388128) can0 41B#2720000001600000
(1554630854.388128) can0 2FA#000B7100
(1554630854.389287) can0 0FF#001DC3B67700029E
(1554630854.390357) can0 0DE#1BF997D00CA1
(1554630854.390358) can0 100#4EE1DC3B80000375
(1554630854.392132) can0 4B1#05C0000800000000
(1554630854.392133) can0 0FE#8008008000320B02
(1554630854.392134) can0 101#000000041FC00B36
(1554630854.392135) can0 103#000003E800000B0C
(1554630854.393235) can0 1F5#00003F0000
(1554630854.394407) can0 0F0#FFC00084BFF804D6
(1554630854.394408) can0 104#0000000600000417
(1554630854.394409) can0 0FB#000C1DC40000038B
(1554630854.394409) can0 0F4#17E87700000013BE
(1554630854.395466) can0 2EF#0F71000000000000
(1554630854.396733) can0 0FA#40200000780800E2
(1554630854.396734) can0 7D0#00
(1554630854.396734) can0 0FC#000080001800031A
(1554630854.396735) can0 0EE#0000000000000C96
(1554630854.396735) can0 116#0100000000000B98
(1554630854.398006) can0 1FA#197A240000000000
(1554630854.399007) can0 0FF#001DC3B677000383
(1554630854.400366) can0 0DE#1BF997D00DBC
(1554630854.400367) can0 100#4EE1DC3B80000426
(1554630854.402187) can0 256#0800007FC4420000
(1554630854.402187) can0 419#8A00000C00000000
(1554630854.402188) can0 0FE#8017FF8000320C6F
(1554630854.402188) can0 101#000000041FC00C65
(1554630854.402189) can0 103#000003E800000C5F
(1554630854.403407) can0 190#001000000000001E
(1554630854.403408) can0 1F0#001FE00000000000
(1554630854.403409) can0 1F1#FF0000000100063E
(1554630854.403409) can0 0F0#FFC00084BFF805CB
(1554630854.404874) can0 104#000000060000050A
(1554630854.404877) can0 1F7#000000B800000000
(1554630854.404878) can0 0F4#17E87700000014ED
(1554630854.404879) can0 0FB#000C1DC4000004D8
(1554630854.407158) can0 0FA#40200000000800A6
(1554630854.407159) can0 1EF#8800000000000DF8
(1554630854.407160) can0 0FC#0000800018000449
